Command: /home/ICer/xilinx_prj/amba_ahb/vcs/./top_simv -ucli -licqueue -l simulate.log -do simulate.do
Chronologic VCS simulator copyright 1991-2018
Contains Synopsys proprietary information.
Compiler version O-2018.09-1_Full64; Runtime version O-2018.09-1_Full64;  Mar 14 11:28 2024
ucli% run
Info: top.u_amba_ahb.Uahb_lite.Uahb_decoder HSEL0: from 0x0000_0000 to 0x00ff_FFFF
Info: top.u_amba_ahb.Uahb_lite.Uahb_decoder HSEL1: from 0x1000_0000 to 0x10ff_FFFF
Info: top.u_amba_ahb.Uahb_lite.Uahb_decoder HSEL2: from 0x2000_0000 to 0x20ff_FFFF
*Verdi* Loading libsscore_vcs201809.so
FSDB Dumper for VCS, Release Verdi_O-2018.09-SP2, Linux x86_64/64bit, 02/21/2019
(C) 1996 - 2019 by Synopsys, Inc.
*Verdi* FSDB WARNING: The FSDB file already exists. Overwriting the FSDB file may crash the programs that are using this file.
*Verdi* FSDB: The switch FSDB file size might not match the input size (10000MB) because of performance concerns.
*Verdi* FSDB: To have the FSDB file size match the input size (10000MB), set the FSDB_ENV_PRECISE_AUTOSWITCH environment, though the dumping performance might decrease.
*Verdi* : Enable automatic switching of the FSDB file.
*Verdi* : (Filename='top', Limit Size=10000MB, File Amount=100).
*Verdi* : Create FSDB file 'top_000.fsdb'
*Verdi* : Create the file 'wave_file.log' to log the time range of each FSDB file.
*Verdi* : Create virtual FSDB file 'top.vf' to log each FSDB file.
*Verdi* : Begin traversing the scope (top), layer (0).
*Verdi* : End of traversing.
*Verdi* : Begin traversing the MDAs, layer (0).
*Verdi* : Enable +mda and +packedmda dumping.
*Verdi* : End of traversing the MDAs.
top HCLK 20.000000 nsec 50.000000 Mhz
begin to SINGLE TEST..., at                  270
======================================
begin to SINGLE TEST..., at                  270
======================================
top.GM_BLK[1].u_bfm_ahb.memory_test: read-after-write test with 1-byte access
top.GM_BLK[1].u_bfm_ahb.memory_test: start addr = 0x10000000, finish addr = 0x100000ff, added by huanglc
top.GM_BLK[1].u_bfm_ahb.memory_test: after $random&~32'b0, gen = 0x466c4b8c, aligned data = 0x8c, added by huanglc
top.GM_BLK[0].u_bfm_ahb.memory_test: read-after-write test with 1-byte access
top.GM_BLK[0].u_bfm_ahb.memory_test: start addr = 0x0, finish addr = 0xff, added by huanglc
top.GM_BLK[0].u_bfm_ahb.memory_test: after $random&~32'b0, gen = 0x466c4b8c, aligned data = 0x8c, added by huanglc
top.GM_BLK[0].u_bfm_ahb.memory_test: after $random&~32'b0, gen = 0x2d57715a, aligned data = 0x7100, added by huanglc
top.GM_BLK[1].u_bfm_ahb.memory_test: after $random&~32'b0, gen = 0x2e6dfb5c, aligned data = 0xfb00, added by huanglc
top.GM_BLK[0].u_bfm_ahb.memory_test: after $random&~32'b0, gen = 0xbd82ea7b, aligned data = 0x820000, added by huanglc
top.GM_BLK[1].u_bfm_ahb.memory_test: after $random&~32'b0, gen = 0x4fc5f39f, aligned data = 0xc50000, added by huanglc
top.GM_BLK[0].u_bfm_ahb.memory_test: after $random&~32'b0, gen = 0xdebaaebd, aligned data = 0xde000000, added by huanglc
top.GM_BLK[1].u_bfm_ahb.memory_test: after $random&~32'b0, gen = 0x8270a604, aligned data = 0x82000000, added by huanglc
top.GM_BLK[0].u_bfm_ahb.memory_test: after $random&~32'b0, gen = 0xd1d788a3, aligned data = 0xa3, added by huanglc
top.GM_BLK[1].u_bfm_ahb.memory_test: after $random&~32'b0, gen = 0x81de9003, aligned data = 0x3, added by huanglc
top.GM_BLK[0].u_bfm_ahb.memory_test: after $random&~32'b0, gen = 0xdb5f10b6, aligned data = 0x1000, added by huanglc
top.GM_BLK[1].u_bfm_ahb.memory_test: after $random&~32'b0, gen = 0x8d3b801a, aligned data = 0x8000, added by huanglc
top.GM_BLK[0].u_bfm_ahb.memory_test: after $random&~32'b0, gen = 0x9c8b8839, aligned data = 0x8b0000, added by huanglc
top.GM_BLK[1].u_bfm_ahb.memory_test: after $random&~32'b0, gen = 0xf91d02f2, aligned data = 0x1d0000, added by huanglc
top.GM_BLK[0].u_bfm_ahb.memory_test: after $random&~32'b0, gen = 0xf6cec2ed, aligned data = 0xf6000000, added by huanglc
top.GM_BLK[1].u_bfm_ahb.memory_test: after $random&~32'b0, gen = 0xe4afc2c9, aligned data = 0xe4000000, added by huanglc
top.GM_BLK[0].u_bfm_ahb.memory_test: after $random&~32'b0, gen = 0xcf07f89e, aligned data = 0x9e, added by huanglc
top.GM_BLK[1].u_bfm_ahb.memory_test: after $random&~32'b0, gen = 0x283be550, aligned data = 0x50, added by huanglc
top.GM_BLK[0].u_bfm_ahb.memory_test: after $random&~32'b0, gen = 0x2664b34c, aligned data = 0xb300, added by huanglc
top.GM_BLK[1].u_bfm_ahb.memory_test: after $random&~32'b0, gen = 0x8c986c19, aligned data = 0x6c00, added by huanglc
top.GM_BLK[0].u_bfm_ahb.memory_test: after $random&~32'b0, gen = 0xbda4a27b, aligned data = 0xa40000, added by huanglc
top.GM_BLK[1].u_bfm_ahb.memory_test: after $random&~32'b0, gen = 0xdae592b5, aligned data = 0xe50000, added by huanglc
top.GM_BLK[0].u_bfm_ahb.memory_test: after $random&~32'b0, gen = 0x84388a08, aligned data = 0x84000000, added by huanglc
top.GM_BLK[1].u_bfm_ahb.memory_test: after $random&~32'b0, gen = 0x49a63793, aligned data = 0x49000000, added by huanglc
top.GM_BLK[0].u_bfm_ahb.memory_test: after $random&~32'b0, gen = 0x9f74143e, aligned data = 0x3e, added by huanglc
top.GM_BLK[1].u_bfm_ahb.memory_test: after $random&~32'b0, gen = 0xa8102850, aligned data = 0x50, added by huanglc
top.GM_BLK[0].u_bfm_ahb.memory_test: after $random&~32'b0, gen = 0x8ecab81d, aligned data = 0xb800, added by huanglc
top.GM_BLK[1].u_bfm_ahb.memory_test: after $random&~32'b0, gen = 0x5a2b9fb4, aligned data = 0x9f00, added by huanglc
top.GM_BLK[0].u_bfm_ahb.memory_test: after $random&~32'b0, gen = 0x8cf9911, aligned data = 0xcf0000, added by huanglc
top.GM_BLK[1].u_bfm_ahb.memory_test: after $random&~32'b0, gen = 0x30198360, aligned data = 0x190000, added by huanglc
top.GM_BLK[0].u_bfm_ahb.memory_test: after $random&~32'b0, gen = 0x517067a2, aligned data = 0x51000000, added by huanglc
top.GM_BLK[1].u_bfm_ahb.memory_test: after $random&~32'b0, gen = 0x5098e1a1, aligned data = 0x50000000, added by huanglc
top.GM_BLK[0].u_bfm_ahb.memory_test: after $random&~32'b0, gen = 0x2ca33b59, aligned data = 0x59, added by huanglc
top.GM_BLK[1].u_bfm_ahb.memory_test: after $random&~32'b0, gen = 0x42a33d85, aligned data = 0x85, added by huanglc
top.GM_BLK[0].u_bfm_ahb.memory_test: after $random&~32'b0, gen = 0xe17f80c2, aligned data = 0x8000, added by huanglc
top.GM_BLK[1].u_bfm_ahb.memory_test: after $random&~32'b0, gen = 0x8bb7f817, aligned data = 0xf800, added by huanglc
top.GM_BLK[0].u_bfm_ahb.memory_test: after $random&~32'b0, gen = 0x3079c960, aligned data = 0x790000, added by huanglc
top.GM_BLK[1].u_bfm_ahb.memory_test: after $random&~32'b0, gen = 0xc82eb090, aligned data = 0x2e0000, added by huanglc
top.GM_BLK[0].u_bfm_ahb.memory_test: after $random&~32'b0, gen = 0x5c3ab5b8, aligned data = 0x5c000000, added by huanglc
top.GM_BLK[1].u_bfm_ahb.memory_test: after $random&~32'b0, gen = 0x88a8a211, aligned data = 0x88000000, added by huanglc
top.GM_BLK[0].u_bfm_ahb.memory_test: after $random&~32'b0, gen = 0x9f48cc3e, aligned data = 0x3e, added by huanglc
top.GM_BLK[1].u_bfm_ahb.memory_test: after $random&~32'b0, gen = 0xb78ff16, aligned data = 0x16, added by huanglc
top.GM_BLK[0].u_bfm_ahb.memory_test: after $random&~32'b0, gen = 0x517d6da2, aligned data = 0x6d00, added by huanglc
top.GM_BLK[1].u_bfm_ahb.memory_test: after $random&~32'b0, gen = 0xa9c5915, aligned data = 0x5900, added by huanglc
top.GM_BLK[0].u_bfm_ahb.memory_test: after $random&~32'b0, gen = 0xc6fc948d, aligned data = 0xfc0000, added by huanglc
top.GM_BLK[1].u_bfm_ahb.memory_test: after $random&~32'b0, gen = 0xbe96fe7d, aligned data = 0x960000, added by huanglc
top.GM_BLK[0].u_bfm_ahb.memory_test: after $random&~32'b0, gen = 0x4727d58e, aligned data = 0x47000000, added by huanglc
top.GM_BLK[1].u_bfm_ahb.memory_test: after $random&~32'b0, gen = 0xd4525aa8, aligned data = 0xd4000000, added by huanglc
top.GM_BLK[0].u_bfm_ahb.memory_test: after $random&~32'b0, gen = 0x8cc42a19, aligned data = 0x19, added by huanglc
top.GM_BLK[1].u_bfm_ahb.memory_test: after $random&~32'b0, gen = 0xd7d14eaf, aligned data = 0xaf, added by huanglc
top.GM_BLK[0].u_bfm_ahb.memory_test: after $random&~32'b0, gen = 0xc14ada82, aligned data = 0xda00, added by huanglc
top.GM_BLK[1].u_bfm_ahb.memory_test: after $random&~32'b0, gen = 0x6f53a1de, aligned data = 0xa100, added by huanglc
top.GM_BLK[0].u_bfm_ahb.memory_test: after $random&~32'b0, gen = 0x41d5b08, aligned data = 0x1d0000, added by huanglc
top.GM_BLK[1].u_bfm_ahb.memory_test: after $random&~32'b0, gen = 0x22404b44, aligned data = 0x400000, added by huanglc
top.GM_BLK[0].u_bfm_ahb.memory_test: after $random&~32'b0, gen = 0xfb1428f6, aligned data = 0xfb000000, added by huanglc
top.GM_BLK[1].u_bfm_ahb.memory_test: after $random&~32'b0, gen = 0x3ceee979, aligned data = 0x3c000000, added by huanglc
top.GM_BLK[0].u_bfm_ahb.memory_test: after $random&~32'b0, gen = 0xd4a0b2a9, aligned data = 0xa9, added by huanglc
top.GM_BLK[1].u_bfm_ahb.memory_test: after $random&~32'b0, gen = 0x1e280f3c, aligned data = 0x3c, added by huanglc
top.GM_BLK[0].u_bfm_ahb.memory_test: after $random&~32'b0, gen = 0x3c7a2d78, aligned data = 0x2d00, added by huanglc
top.GM_BLK[1].u_bfm_ahb.memory_test: after $random&~32'b0, gen = 0xccf4ae99, aligned data = 0xae00, added by huanglc
top.GM_BLK[0].u_bfm_ahb.memory_test: after $random&~32'b0, gen = 0x3a8d7d75, aligned data = 0x8d0000, added by huanglc
top.GM_BLK[1].u_bfm_ahb.memory_test: after $random&~32'b0, gen = 0x8d14761a, aligned data = 0x140000, added by huanglc
top.GM_BLK[0].u_bfm_ahb.memory_test: after $random&~32'b0, gen = 0x78a811f1, aligned data = 0x78000000, added by huanglc
top.GM_BLK[1].u_bfm_ahb.memory_test: after $random&~32'b0, gen = 0x36332f6c, aligned data = 0x36000000, added by huanglc
top.GM_BLK[0].u_bfm_ahb.memory_test: after $random&~32'b0, gen = 0x2e15c55c, aligned data = 0x5c, added by huanglc
top.GM_BLK[1].u_bfm_ahb.memory_test: after $random&~32'b0, gen = 0xc5b51e8b, aligned data = 0x8b, added by huanglc
top.GM_BLK[0].u_bfm_ahb.memory_test: after $random&~32'b0, gen = 0xa129c042, aligned data = 0xc000, added by huanglc
top.GM_BLK[1].u_bfm_ahb.memory_test: after $random&~32'b0, gen = 0xecb264d9, aligned data = 0x6400, added by huanglc
top.GM_BLK[0].u_bfm_ahb.memory_test: after $random&~32'b0, gen = 0xfd6a58fa, aligned data = 0x6a0000, added by huanglc
top.GM_BLK[1].u_bfm_ahb.memory_test: after $random&~32'b0, gen = 0xab796056, aligned data = 0x790000, added by huanglc
top.GM_BLK[0].u_bfm_ahb.memory_test: after $random&~32'b0, gen = 0xd9d7eab3, aligned data = 0xd9000000, added by huanglc
top.GM_BLK[1].u_bfm_ahb.memory_test: after $random&~32'b0, gen = 0x51b00da3, aligned data = 0x51000000, added by huanglc
top.GM_BLK[0].u_bfm_ahb.memory_test: after $random&~32'b0, gen = 0x6586c3cb, aligned data = 0xcb, added by huanglc
top.GM_BLK[1].u_bfm_ahb.memory_test: after $random&~32'b0, gen = 0xe5ec5ccb, aligned data = 0xcb, added by huanglc
top.GM_BLK[0].u_bfm_ahb.memory_test: after $random&~32'b0, gen = 0x7983f9f3, aligned data = 0xf900, added by huanglc
top.GM_BLK[1].u_bfm_ahb.memory_test: after $random&~32'b0, gen = 0xf95ba2f2, aligned data = 0xa200, added by huanglc
top.GM_BLK[0].u_bfm_ahb.memory_test: after $random&~32'b0, gen = 0xf5bd50eb, aligned data = 0xbd0000, added by huanglc
top.GM_BLK[1].u_bfm_ahb.memory_test: after $random&~32'b0, gen = 0xb3d0ea67, aligned data = 0xd00000, added by huanglc
top.GM_BLK[0].u_bfm_ahb.memory_test: after $random&~32'b0, gen = 0x83641806, aligned data = 0x83000000, added by huanglc
top.GM_BLK[1].u_bfm_ahb.memory_test: after $random&~32'b0, gen = 0x625261c4, aligned data = 0x62000000, added by huanglc
top.GM_BLK[0].u_bfm_ahb.memory_test: after $random&~32'b0, gen = 0x4a030d94, aligned data = 0x94, added by huanglc
top.GM_BLK[1].u_bfm_ahb.memory_test: after $random&~32'b0, gen = 0x75fda9eb, aligned data = 0xeb, added by huanglc
top.GM_BLK[0].u_bfm_ahb.memory_test: after $random&~32'b0, gen = 0x53f330a, aligned data = 0x3300, added by huanglc
top.GM_BLK[1].u_bfm_ahb.memory_test: after $random&~32'b0, gen = 0x9adb4435, aligned data = 0x4400, added by huanglc
top.GM_BLK[0].u_bfm_ahb.memory_test: after $random&~32'b0, gen = 0x67fbc3cf, aligned data = 0xfb0000, added by huanglc
top.GM_BLK[1].u_bfm_ahb.memory_test: after $random&~32'b0, gen = 0xcdf8f29b, aligned data = 0xf80000, added by huanglc
top.GM_BLK[0].u_bfm_ahb.memory_test: after $random&~32'b0, gen = 0x8658f80c, aligned data = 0x86000000, added by huanglc
top.GM_BLK[1].u_bfm_ahb.memory_test: after $random&~32'b0, gen = 0xfe30d1f, aligned data = 0xf000000, added by huanglc
top.GM_BLK[0].u_bfm_ahb.memory_test: after $random&~32'b0, gen = 0x4ac5ff95, aligned data = 0x95, added by huanglc
top.GM_BLK[1].u_bfm_ahb.memory_test: after $random&~32'b0, gen = 0xec54e4d8, aligned data = 0xd8, added by huanglc
top.GM_BLK[0].u_bfm_ahb.memory_test: after $random&~32'b0, gen = 0x731dd1e6, aligned data = 0xd100, added by huanglc
top.GM_BLK[1].u_bfm_ahb.memory_test: after $random&~32'b0, gen = 0x81b83003, aligned data = 0x3000, added by huanglc
top.GM_BLK[0].u_bfm_ahb.memory_test: after $random&~32'b0, gen = 0x69870fd3, aligned data = 0x870000, added by huanglc
top.GM_BLK[1].u_bfm_ahb.memory_test: after $random&~32'b0, gen = 0x6acb5bd5, aligned data = 0xcb0000, added by huanglc
top.GM_BLK[0].u_bfm_ahb.memory_test: after $random&~32'b0, gen = 0x318eeb63, aligned data = 0x31000000, added by huanglc
top.GM_BLK[1].u_bfm_ahb.memory_test: after $random&~32'b0, gen = 0xda86eeb5, aligned data = 0xda000000, added by huanglc
top.GM_BLK[0].u_bfm_ahb.memory_test: after $random&~32'b0, gen = 0xc4b6fe89, aligned data = 0x89, added by huanglc
top.GM_BLK[1].u_bfm_ahb.memory_test: after $random&~32'b0, gen = 0xce19f09c, aligned data = 0x9c, added by huanglc
top.GM_BLK[0].u_bfm_ahb.memory_test: after $random&~32'b0, gen = 0x4a6e3194, aligned data = 0x3100, added by huanglc
top.GM_BLK[1].u_bfm_ahb.memory_test: after $random&~32'b0, gen = 0x629543c5, aligned data = 0x4300, added by huanglc
top.GM_BLK[0].u_bfm_ahb.memory_test: after $random&~32'b0, gen = 0xc62c988c, aligned data = 0x2c0000, added by huanglc
top.GM_BLK[1].u_bfm_ahb.memory_test: after $random&~32'b0, gen = 0x8b9e0017, aligned data = 0x9e0000, added by huanglc
top.GM_BLK[0].u_bfm_ahb.memory_test: after $random&~32'b0, gen = 0xd32a50a6, aligned data = 0xd3000000, added by huanglc
top.GM_BLK[1].u_bfm_ahb.memory_test: after $random&~32'b0, gen = 0x8e3ee61c, aligned data = 0x8e000000, added by huanglc
top.GM_BLK[0].u_bfm_ahb.memory_test: after $random&~32'b0, gen = 0xffe968ff, aligned data = 0xff, added by huanglc
top.GM_BLK[1].u_bfm_ahb.memory_test: after $random&~32'b0, gen = 0x2eb0ab5d, aligned data = 0x5d, added by huanglc
top.GM_BLK[0].u_bfm_ahb.memory_test: after $random&~32'b0, gen = 0x48ab509, aligned data = 0xb500, added by huanglc
top.GM_BLK[1].u_bfm_ahb.memory_test: after $random&~32'b0, gen = 0x61b15bc3, aligned data = 0x5b00, added by huanglc
top.GM_BLK[0].u_bfm_ahb.memory_test: after $random&~32'b0, gen = 0x95a5ba2b, aligned data = 0xa50000, added by huanglc
top.GM_BLK[1].u_bfm_ahb.memory_test: after $random&~32'b0, gen = 0xf9c2c6f3, aligned data = 0xc20000, added by huanglc
top.GM_BLK[0].u_bfm_ahb.memory_test: after $random&~32'b0, gen = 0xaa1b8a54, aligned data = 0xaa000000, added by huanglc
top.GM_BLK[1].u_bfm_ahb.memory_test: after $random&~32'b0, gen = 0x2667d94c, aligned data = 0x26000000, added by huanglc
top.GM_BLK[0].u_bfm_ahb.memory_test: after $random&~32'b0, gen = 0xdd1c9cba, aligned data = 0xba, added by huanglc
top.GM_BLK[1].u_bfm_ahb.memory_test: after $random&~32'b0, gen = 0x1f38f33e, aligned data = 0x3e, added by huanglc
top.GM_BLK[0].u_bfm_ahb.memory_test: after $random&~32'b0, gen = 0xd659bcac, aligned data = 0xbc00, added by huanglc
top.GM_BLK[1].u_bfm_ahb.memory_test: after $random&~32'b0, gen = 0xee675adc, aligned data = 0x5a00, added by huanglc
top.GM_BLK[0].u_bfm_ahb.memory_test: after $random&~32'b0, gen = 0x8117d802, aligned data = 0x170000, added by huanglc
top.GM_BLK[1].u_bfm_ahb.memory_test: after $random&~32'b0, gen = 0x6e078bdc, aligned data = 0x70000, added by huanglc
top.GM_BLK[0].u_bfm_ahb.memory_test: after $random&~32'b0, gen = 0x79ef70f, aligned data = 0x7000000, added by huanglc
top.GM_BLK[1].u_bfm_ahb.memory_test: after $random&~32'b0, gen = 0x213a9f42, aligned data = 0x21000000, added by huanglc
top.GM_BLK[0].u_bfm_ahb.memory_test: after $random&~32'b0, gen = 0x333bfd66, aligned data = 0x66, added by huanglc
top.GM_BLK[1].u_bfm_ahb.memory_test: after $random&~32'b0, gen = 0xe0eab1c, aligned data = 0x1c, added by huanglc
top.GM_BLK[0].u_bfm_ahb.memory_test: after $random&~32'b0, gen = 0xa9cda453, aligned data = 0xa400, added by huanglc
top.GM_BLK[1].u_bfm_ahb.memory_test: after $random&~32'b0, gen = 0xeae211d, aligned data = 0x2100, added by huanglc
top.GM_BLK[0].u_bfm_ahb.memory_test: after $random&~32'b0, gen = 0xb8945271, aligned data = 0x940000, added by huanglc
top.GM_BLK[1].u_bfm_ahb.memory_test: after $random&~32'b0, gen = 0xa8362e50, aligned data = 0x360000, added by huanglc
top.GM_BLK[0].u_bfm_ahb.memory_test: after $random&~32'b0, gen = 0xa0bcf441, aligned data = 0xa0000000, added by huanglc
top.GM_BLK[1].u_bfm_ahb.memory_test: after $random&~32'b0, gen = 0x434c1d86, aligned data = 0x43000000, added by huanglc
top.GM_BLK[0].u_bfm_ahb.memory_test: after $random&~32'b0, gen = 0xdcdee8b9, aligned data = 0xb9, added by huanglc
top.GM_BLK[1].u_bfm_ahb.memory_test: after $random&~32'b0, gen = 0x1649b32c, aligned data = 0x2c, added by huanglc
top.GM_BLK[0].u_bfm_ahb.memory_test: after $random&~32'b0, gen = 0x4764d38e, aligned data = 0xd300, added by huanglc
top.GM_BLK[1].u_bfm_ahb.memory_test: after $random&~32'b0, gen = 0x1a988f35, aligned data = 0x8f00, added by huanglc
top.GM_BLK[0].u_bfm_ahb.memory_test: after $random&~32'b0, gen = 0x98988631, aligned data = 0x980000, added by huanglc
top.GM_BLK[1].u_bfm_ahb.memory_test: after $random&~32'b0, gen = 0x769491ed, aligned data = 0x940000, added by huanglc
top.GM_BLK[0].u_bfm_ahb.memory_test: after $random&~32'b0, gen = 0xfc9e71f, aligned data = 0xf000000, added by huanglc
top.GM_BLK[1].u_bfm_ahb.memory_test: after $random&~32'b0, gen = 0xcb0d3296, aligned data = 0xcb000000, added by huanglc
top.GM_BLK[0].u_bfm_ahb.memory_test: after $random&~32'b0, gen = 0x75c8bdeb, aligned data = 0xeb, added by huanglc
top.GM_BLK[1].u_bfm_ahb.memory_test: after $random&~32'b0, gen = 0x3f3de97e, aligned data = 0x7e, added by huanglc
top.GM_BLK[0].u_bfm_ahb.memory_test: after $random&~32'b0, gen = 0xafa9a05f, aligned data = 0xa000, added by huanglc
top.GM_BLK[1].u_bfm_ahb.memory_test: after $random&~32'b0, gen = 0xe7d582cf, aligned data = 0x8200, added by huanglc
top.GM_BLK[0].u_bfm_ahb.memory_test: after $random&~32'b0, gen = 0xff8dd6ff, aligned data = 0x8d0000, added by huanglc
top.GM_BLK[1].u_bfm_ahb.memory_test: after $random&~32'b0, gen = 0xad64925a, aligned data = 0x640000, added by huanglc
top.GM_BLK[0].u_bfm_ahb.memory_test: after $random&~32'b0, gen = 0x85e62c0b, aligned data = 0x85000000, added by huanglc
top.GM_BLK[1].u_bfm_ahb.memory_test: after $random&~32'b0, gen = 0x144abf28, aligned data = 0x14000000, added by huanglc
top.GM_BLK[0].u_bfm_ahb.memory_test: after $random&~32'b0, gen = 0xc868de90, aligned data = 0x90, added by huanglc
top.GM_BLK[1].u_bfm_ahb.memory_test: after $random&~32'b0, gen = 0xabfb2c57, aligned data = 0x57, added by huanglc
top.GM_BLK[0].u_bfm_ahb.memory_test: after $random&~32'b0, gen = 0xa4b27449, aligned data = 0x7400, added by huanglc
top.GM_BLK[1].u_bfm_ahb.memory_test: after $random&~32'b0, gen = 0x652fdfca, aligned data = 0xdf00, added by huanglc
top.GM_BLK[0].u_bfm_ahb.memory_test: after $random&~32'b0, gen = 0x5349a1a6, aligned data = 0x490000, added by huanglc
top.GM_BLK[1].u_bfm_ahb.memory_test: after $random&~32'b0, gen = 0xe64131c, aligned data = 0x640000, added by huanglc
top.GM_BLK[0].u_bfm_ahb.memory_test: after $random&~32'b0, gen = 0xac7e2458, aligned data = 0xac000000, added by huanglc
top.GM_BLK[1].u_bfm_ahb.memory_test: after $random&~32'b0, gen = 0xabada257, aligned data = 0xab000000, added by huanglc
top.GM_BLK[0].u_bfm_ahb.memory_test: after $random&~32'b0, gen = 0xeb5aaad6, aligned data = 0xd6, added by huanglc
top.GM_BLK[1].u_bfm_ahb.memory_test: after $random&~32'b0, gen = 0xbacd6075, aligned data = 0x75, added by huanglc
top.GM_BLK[0].u_bfm_ahb.memory_test: after $random&~32'b0, gen = 0x63a1abc7, aligned data = 0xab00, added by huanglc
top.GM_BLK[1].u_bfm_ahb.memory_test: after $random&~32'b0, gen = 0xa60e824c, aligned data = 0x8200, added by huanglc
top.GM_BLK[0].u_bfm_ahb.memory_test: after $random&~32'b0, gen = 0x368d476d, aligned data = 0x8d0000, added by huanglc
top.GM_BLK[1].u_bfm_ahb.memory_test: after $random&~32'b0, gen = 0x204cf340, aligned data = 0x4c0000, added by huanglc
top.GM_BLK[0].u_bfm_ahb.memory_test: after $random&~32'b0, gen = 0xb6ca2e6d, aligned data = 0xb6000000, added by huanglc
top.GM_BLK[1].u_bfm_ahb.memory_test: after $random&~32'b0, gen = 0xd23abca4, aligned data = 0xd2000000, added by huanglc
top.GM_BLK[0].u_bfm_ahb.memory_test: after $random&~32'b0, gen = 0xee5811d, aligned data = 0x1d, added by huanglc
top.GM_BLK[1].u_bfm_ahb.memory_test: after $random&~32'b0, gen = 0x14bc6529, aligned data = 0x29, added by huanglc
top.GM_BLK[0].u_bfm_ahb.memory_test: after $random&~32'b0, gen = 0x8e25a21c, aligned data = 0xa200, added by huanglc
top.GM_BLK[1].u_bfm_ahb.memory_test: after $random&~32'b0, gen = 0x5df44dbb, aligned data = 0x4d00, added by huanglc
top.GM_BLK[0].u_bfm_ahb.memory_test: after $random&~32'b0, gen = 0xee8626dd, aligned data = 0x860000, added by huanglc
top.GM_BLK[1].u_bfm_ahb.memory_test: after $random&~32'b0, gen = 0xf65510ec, aligned data = 0x550000, added by huanglc
top.GM_BLK[0].u_bfm_ahb.memory_test: after $random&~32'b0, gen = 0xa34eae46, aligned data = 0xa3000000, added by huanglc
top.GM_BLK[1].u_bfm_ahb.memory_test: after $random&~32'b0, gen = 0x70d2ede1, aligned data = 0x70000000, added by huanglc
top.GM_BLK[0].u_bfm_ahb.memory_test: after $random&~32'b0, gen = 0xfa7cc2f4, aligned data = 0xf4, added by huanglc
top.GM_BLK[1].u_bfm_ahb.memory_test: after $random&~32'b0, gen = 0xad0c165a, aligned data = 0x5a, added by huanglc
top.GM_BLK[0].u_bfm_ahb.memory_test: after $random&~32'b0, gen = 0x43f8bf87, aligned data = 0xbf00, added by huanglc
top.GM_BLK[1].u_bfm_ahb.memory_test: after $random&~32'b0, gen = 0xcc001c98, aligned data = 0x1c00, added by huanglc
top.GM_BLK[0].u_bfm_ahb.memory_test: after $random&~32'b0, gen = 0x784da3f0, aligned data = 0x4d0000, added by huanglc
top.GM_BLK[1].u_bfm_ahb.memory_test: after $random&~32'b0, gen = 0xe7ae4ecf, aligned data = 0xae0000, added by huanglc
top.GM_BLK[0].u_bfm_ahb.memory_test: after $random&~32'b0, gen = 0xad5bfe5a, aligned data = 0xad000000, added by huanglc
top.GM_BLK[1].u_bfm_ahb.memory_test: after $random&~32'b0, gen = 0x7bb315f7, aligned data = 0x7b000000, added by huanglc
top.GM_BLK[0].u_bfm_ahb.memory_test: after $random&~32'b0, gen = 0x3a3fd174, aligned data = 0x74, added by huanglc
top.GM_BLK[1].u_bfm_ahb.memory_test: after $random&~32'b0, gen = 0xb0bc5661, aligned data = 0x61, added by huanglc
top.GM_BLK[0].u_bfm_ahb.memory_test: after $random&~32'b0, gen = 0x6c615dd8, aligned data = 0x5d00, added by huanglc
top.GM_BLK[1].u_bfm_ahb.memory_test: after $random&~32'b0, gen = 0x166cd52c, aligned data = 0xd500, added by huanglc
top.GM_BLK[0].u_bfm_ahb.memory_test: after $random&~32'b0, gen = 0x4e69199c, aligned data = 0x690000, added by huanglc
top.GM_BLK[1].u_bfm_ahb.memory_test: after $random&~32'b0, gen = 0x37068b6e, aligned data = 0x60000, added by huanglc
top.GM_BLK[0].u_bfm_ahb.memory_test: after $random&~32'b0, gen = 0xee8e82dd, aligned data = 0xee000000, added by huanglc
top.GM_BLK[1].u_bfm_ahb.memory_test: after $random&~32'b0, gen = 0xc5f4148b, aligned data = 0xc5000000, added by huanglc
top.GM_BLK[0].u_bfm_ahb.memory_test: after $random&~32'b0, gen = 0xfc7a08f8, aligned data = 0xf8, added by huanglc
top.GM_BLK[1].u_bfm_ahb.memory_test: after $random&~32'b0, gen = 0x660907cc, aligned data = 0xcc, added by huanglc
top.GM_BLK[0].u_bfm_ahb.memory_test: after $random&~32'b0, gen = 0x2fb1df5f, aligned data = 0xdf00, added by huanglc
top.GM_BLK[1].u_bfm_ahb.memory_test: after $random&~32'b0, gen = 0x1611532c, aligned data = 0x5300, added by huanglc
top.GM_BLK[0].u_bfm_ahb.memory_test: after $random&~32'b0, gen = 0xde49eabc, aligned data = 0x490000, added by huanglc
top.GM_BLK[1].u_bfm_ahb.memory_test: after $random&~32'b0, gen = 0xaa07a654, aligned data = 0x70000, added by huanglc
top.GM_BLK[0].u_bfm_ahb.memory_test: after $random&~32'b0, gen = 0x304e9b60, aligned data = 0x30000000, added by huanglc
top.GM_BLK[1].u_bfm_ahb.memory_test: after $random&~32'b0, gen = 0x450acb8a, aligned data = 0x45000000, added by huanglc
top.GM_BLK[0].u_bfm_ahb.memory_test: after $random&~32'b0, gen = 0x9f22ca3e, aligned data = 0x3e, added by huanglc
top.GM_BLK[1].u_bfm_ahb.memory_test: after $random&~32'b0, gen = 0xfbea06f7, aligned data = 0xf7, added by huanglc
top.GM_BLK[0].u_bfm_ahb.memory_test: after $random&~32'b0, gen = 0xa0c8a241, aligned data = 0xa200, added by huanglc
top.GM_BLK[1].u_bfm_ahb.memory_test: after $random&~32'b0, gen = 0x91e07823, aligned data = 0x7800, added by huanglc
top.GM_BLK[0].u_bfm_ahb.memory_test: after $random&~32'b0, gen = 0xadcd765b, aligned data = 0xcd0000, added by huanglc
top.GM_BLK[1].u_bfm_ahb.memory_test: after $random&~32'b0, gen = 0x10d78121, aligned data = 0xd70000, added by huanglc
top.GM_BLK[0].u_bfm_ahb.memory_test: after $random&~32'b0, gen = 0xed50a4da, aligned data = 0xed000000, added by huanglc
top.GM_BLK[1].u_bfm_ahb.memory_test: after $random&~32'b0, gen = 0xc4481888, aligned data = 0xc4000000, added by huanglc
top.GM_BLK[0].u_bfm_ahb.memory_test: after $random&~32'b0, gen = 0xed5d78da, aligned data = 0xda, added by huanglc
top.GM_BLK[1].u_bfm_ahb.memory_test: after $random&~32'b0, gen = 0x49933593, aligned data = 0x93, added by huanglc
top.GM_BLK[0].u_bfm_ahb.memory_test: after $random&~32'b0, gen = 0x96900a2d, aligned data = 0xa00, added by huanglc
top.GM_BLK[1].u_bfm_ahb.memory_test: after $random&~32'b0, gen = 0xea6924d4, aligned data = 0x2400, added by huanglc
top.GM_BLK[0].u_bfm_ahb.memory_test: after $random&~32'b0, gen = 0x30bd1d61, aligned data = 0xbd0000, added by huanglc
top.GM_BLK[1].u_bfm_ahb.memory_test: after $random&~32'b0, gen = 0xbd97fa7b, aligned data = 0x970000, added by huanglc
top.GM_BLK[0].u_bfm_ahb.memory_test: after $random&~32'b0, gen = 0x83150006, aligned data = 0x83000000, added by huanglc
top.GM_BLK[1].u_bfm_ahb.memory_test: after $random&~32'b0, gen = 0x858dd10, aligned data = 0x8000000, added by huanglc
top.GM_BLK[0].u_bfm_ahb.memory_test: after $random&~32'b0, gen = 0xcf97119, aligned data = 0x19, added by huanglc
top.GM_BLK[1].u_bfm_ahb.memory_test: after $random&~32'b0, gen = 0x7df471fb, aligned data = 0xfb, added by huanglc
top.GM_BLK[0].u_bfm_ahb.memory_test: after $random&~32'b0, gen = 0xb57e746a, aligned data = 0x7400, added by huanglc
top.GM_BLK[1].u_bfm_ahb.memory_test: after $random&~32'b0, gen = 0x3556396a, aligned data = 0x3900, added by huanglc
top.GM_BLK[0].u_bfm_ahb.memory_test: after $random&~32'b0, gen = 0x4e4e419c, aligned data = 0x4e0000, added by huanglc
top.GM_BLK[1].u_bfm_ahb.memory_test: after $random&~32'b0, gen = 0xebe6f2d7, aligned data = 0xe60000, added by huanglc
top.GM_BLK[0].u_bfm_ahb.memory_test: after $random&~32'b0, gen = 0x93681026, aligned data = 0x93000000, added by huanglc
top.GM_BLK[1].u_bfm_ahb.memory_test: after $random&~32'b0, gen = 0x62c5f7c5, aligned data = 0x62000000, added by huanglc
top.GM_BLK[0].u_bfm_ahb.memory_test: after $random&~32'b0, gen = 0x1bf21537, aligned data = 0x37, added by huanglc
top.GM_BLK[1].u_bfm_ahb.memory_test: after $random&~32'b0, gen = 0xbf399c7e, aligned data = 0x7e, added by huanglc
top.GM_BLK[0].u_bfm_ahb.memory_test: after $random&~32'b0, gen = 0xa9164252, aligned data = 0x4200, added by huanglc
top.GM_BLK[1].u_bfm_ahb.memory_test: after $random&~32'b0, gen = 0xc8ee9491, aligned data = 0x9400, added by huanglc
top.GM_BLK[0].u_bfm_ahb.memory_test: after $random&~32'b0, gen = 0x96a23c2d, aligned data = 0xa20000, added by huanglc
top.GM_BLK[1].u_bfm_ahb.memory_test: after $random&~32'b0, gen = 0x185e4b30, aligned data = 0x5e0000, added by huanglc
top.GM_BLK[0].u_bfm_ahb.memory_test: after $random&~32'b0, gen = 0x95e2342b, aligned data = 0x95000000, added by huanglc
top.GM_BLK[1].u_bfm_ahb.memory_test: after $random&~32'b0, gen = 0xb5744a6a, aligned data = 0xb5000000, added by huanglc
top.GM_BLK[0].u_bfm_ahb.memory_test: after $random&~32'b0, gen = 0x7deec5fb, aligned data = 0xfb, added by huanglc
top.GM_BLK[1].u_bfm_ahb.memory_test: after $random&~32'b0, gen = 0xba4a9874, aligned data = 0x74, added by huanglc
top.GM_BLK[0].u_bfm_ahb.memory_test: after $random&~32'b0, gen = 0x8d65d21a, aligned data = 0xd200, added by huanglc
top.GM_BLK[1].u_bfm_ahb.memory_test: after $random&~32'b0, gen = 0x3795156f, aligned data = 0x1500, added by huanglc
top.GM_BLK[0].u_bfm_ahb.memory_test: after $random&~32'b0, gen = 0x28467550, aligned data = 0x460000, added by huanglc
top.GM_BLK[1].u_bfm_ahb.memory_test: after $random&~32'b0, gen = 0x4813e190, aligned data = 0x130000, added by huanglc
top.GM_BLK[0].u_bfm_ahb.memory_test: after $random&~32'b0, gen = 0x9967ca32, aligned data = 0x99000000, added by huanglc
top.GM_BLK[1].u_bfm_ahb.memory_test: after $random&~32'b0, gen = 0xe624b2cc, aligned data = 0xe6000000, added by huanglc
top.GM_BLK[0].u_bfm_ahb.memory_test: after $random&~32'b0, gen = 0xd9c2deb3, aligned data = 0xb3, added by huanglc
top.GM_BLK[1].u_bfm_ahb.memory_test: after $random&~32'b0, gen = 0x224b4344, aligned data = 0x44, added by huanglc
top.GM_BLK[0].u_bfm_ahb.memory_test: after $random&~32'b0, gen = 0x88878611, aligned data = 0x8600, added by huanglc
top.GM_BLK[1].u_bfm_ahb.memory_test: after $random&~32'b0, gen = 0xbb489e76, aligned data = 0x9e00, added by huanglc
top.GM_BLK[0].u_bfm_ahb.memory_test: after $random&~32'b0, gen = 0x45b4498b, aligned data = 0xb40000, added by huanglc
top.GM_BLK[1].u_bfm_ahb.memory_test: after $random&~32'b0, gen = 0x40199780, aligned data = 0x190000, added by huanglc
top.GM_BLK[0].u_bfm_ahb.memory_test: after $random&~32'b0, gen = 0x35a9336b, aligned data = 0x35000000, added by huanglc
top.GM_BLK[1].u_bfm_ahb.memory_test: after $random&~32'b0, gen = 0xc1f41283, aligned data = 0xc1000000, added by huanglc
top.GM_BLK[0].u_bfm_ahb.memory_test: after $random&~32'b0, gen = 0xc6edc28d, aligned data = 0x8d, added by huanglc
top.GM_BLK[1].u_bfm_ahb.memory_test: after $random&~32'b0, gen = 0x201b7b40, aligned data = 0x40, added by huanglc
top.GM_BLK[0].u_bfm_ahb.memory_test: after $random&~32'b0, gen = 0x9421bc28, aligned data = 0xbc00, added by huanglc
top.GM_BLK[1].u_bfm_ahb.memory_test: after $random&~32'b0, gen = 0x11240f22, aligned data = 0xf00, added by huanglc
top.GM_BLK[0].u_bfm_ahb.memory_test: after $random&~32'b0, gen = 0x9ad11635, aligned data = 0xd10000, added by huanglc
top.GM_BLK[1].u_bfm_ahb.memory_test: after $random&~32'b0, gen = 0xacfd4a59, aligned data = 0xfd0000, added by huanglc
top.GM_BLK[0].u_bfm_ahb.memory_test: after $random&~32'b0, gen = 0xaca2d059, aligned data = 0xac000000, added by huanglc
top.GM_BLK[1].u_bfm_ahb.memory_test: after $random&~32'b0, gen = 0x50db4ba1, aligned data = 0x50000000, added by huanglc
top.GM_BLK[0].u_bfm_ahb.memory_test: after $random&~32'b0, gen = 0x2b1ad356, aligned data = 0x56, added by huanglc
top.GM_BLK[1].u_bfm_ahb.memory_test: after $random&~32'b0, gen = 0xb1d72263, aligned data = 0x63, added by huanglc
top.GM_BLK[0].u_bfm_ahb.memory_test: after $random&~32'b0, gen = 0x76e6d7ed, aligned data = 0xd700, added by huanglc
top.GM_BLK[1].u_bfm_ahb.memory_test: after $random&~32'b0, gen = 0xc4de4489, aligned data = 0x4400, added by huanglc
top.GM_BLK[0].u_bfm_ahb.memory_test: after $random&~32'b0, gen = 0x326e4164, aligned data = 0x6e0000, added by huanglc
top.GM_BLK[1].u_bfm_ahb.memory_test: after $random&~32'b0, gen = 0x3a48df74, aligned data = 0x480000, added by huanglc
top.GM_BLK[0].u_bfm_ahb.memory_test: after $random&~32'b0, gen = 0x3c1cff78, aligned data = 0x3c000000, added by huanglc
top.GM_BLK[1].u_bfm_ahb.memory_test: after $random&~32'b0, gen = 0x992f3832, aligned data = 0x99000000, added by huanglc
top.GM_BLK[0].u_bfm_ahb.memory_test: after $random&~32'b0, gen = 0x47a16d8f, aligned data = 0x8f, added by huanglc
top.GM_BLK[1].u_bfm_ahb.memory_test: after $random&~32'b0, gen = 0xfa5618f4, aligned data = 0xf4, added by huanglc
top.GM_BLK[0].u_bfm_ahb.memory_test: after $random&~32'b0, gen = 0xee1532dc, aligned data = 0x3200, added by huanglc
top.GM_BLK[1].u_bfm_ahb.memory_test: after $random&~32'b0, gen = 0xec4a22d8, aligned data = 0x2200, added by huanglc
top.GM_BLK[0].u_bfm_ahb.memory_test: after $random&~32'b0, gen = 0x1bc92537, aligned data = 0xc90000, added by huanglc
top.GM_BLK[1].u_bfm_ahb.memory_test: after $random&~32'b0, gen = 0x9a023034, aligned data = 0x20000, added by huanglc
top.GM_BLK[0].u_bfm_ahb.memory_test: after $random&~32'b0, gen = 0x9f2c203e, aligned data = 0x9f000000, added by huanglc
top.GM_BLK[1].u_bfm_ahb.memory_test: after $random&~32'b0, gen = 0xd320bea6, aligned data = 0xd3000000, added by huanglc
top.GM_BLK[0].u_bfm_ahb.memory_test: after $random&~32'b0, gen = 0x7704f3ee, aligned data = 0xee, added by huanglc
top.GM_BLK[1].u_bfm_ahb.memory_test: after $random&~32'b0, gen = 0x80ac3e01, aligned data = 0x1, added by huanglc
top.GM_BLK[0].u_bfm_ahb.memory_test: after $random&~32'b0, gen = 0x6f7330d, aligned data = 0x3300, added by huanglc
top.GM_BLK[1].u_bfm_ahb.memory_test: after $random&~32'b0, gen = 0x52d687a5, aligned data = 0x8700, added by huanglc
top.GM_BLK[0].u_bfm_ahb.memory_test: after $random&~32'b0, gen = 0xc00b2480, aligned data = 0xb0000, added by huanglc
top.GM_BLK[1].u_bfm_ahb.memory_test: after $random&~32'b0, gen = 0x7c2b23f8, aligned data = 0x2b0000, added by huanglc
top.GM_BLK[0].u_bfm_ahb.memory_test: after $random&~32'b0, gen = 0xbfb0967f, aligned data = 0xbf000000, added by huanglc
top.GM_BLK[1].u_bfm_ahb.memory_test: after $random&~32'b0, gen = 0xc3cbb18, aligned data = 0xc000000, added by huanglc
top.GM_BLK[0].u_bfm_ahb.memory_test: after $random&~32'b0, gen = 0x9a74c434, aligned data = 0x34, added by huanglc
top.GM_BLK[1].u_bfm_ahb.memory_test: after $random&~32'b0, gen = 0x5fa975bf, aligned data = 0xbf, added by huanglc
top.GM_BLK[0].u_bfm_ahb.memory_test: after $random&~32'b0, gen = 0xa8633450, aligned data = 0x3400, added by huanglc
top.GM_BLK[1].u_bfm_ahb.memory_test: after $random&~32'b0, gen = 0x150e532a, aligned data = 0x5300, added by huanglc
top.GM_BLK[0].u_bfm_ahb.memory_test: after $random&~32'b0, gen = 0xe7c99ecf, aligned data = 0xc90000, added by huanglc
top.GM_BLK[1].u_bfm_ahb.memory_test: after $random&~32'b0, gen = 0x764193ec, aligned data = 0x410000, added by huanglc
top.GM_BLK[0].u_bfm_ahb.memory_test: after $random&~32'b0, gen = 0x97d6be2f, aligned data = 0x97000000, added by huanglc
top.GM_BLK[1].u_bfm_ahb.memory_test: after $random&~32'b0, gen = 0x3aec0d75, aligned data = 0x3a000000, added by huanglc
top.GM_BLK[0].u_bfm_ahb.memory_test: after $random&~32'b0, gen = 0x374c416e, aligned data = 0x6e, added by huanglc
top.GM_BLK[1].u_bfm_ahb.memory_test: after $random&~32'b0, gen = 0x655999ca, aligned data = 0xca, added by huanglc
top.GM_BLK[0].u_bfm_ahb.memory_test: after $random&~32'b0, gen = 0x4c3b9b98, aligned data = 0x9b00, added by huanglc
top.GM_BLK[1].u_bfm_ahb.memory_test: after $random&~32'b0, gen = 0xac186458, aligned data = 0x6400, added by huanglc
top.GM_BLK[0].u_bfm_ahb.memory_test: after $random&~32'b0, gen = 0x7085f5e1, aligned data = 0x850000, added by huanglc
top.GM_BLK[1].u_bfm_ahb.memory_test: after $random&~32'b0, gen = 0xdabf62b5, aligned data = 0xbf0000, added by huanglc
top.GM_BLK[0].u_bfm_ahb.memory_test: after $random&~32'b0, gen = 0x4396f987, aligned data = 0x43000000, added by huanglc
top.GM_BLK[1].u_bfm_ahb.memory_test: after $random&~32'b0, gen = 0xc1f39683, aligned data = 0xc1000000, added by huanglc
top.GM_BLK[0].u_bfm_ahb.memory_test: after $random&~32'b0, gen = 0x4492c789, aligned data = 0x89, added by huanglc
top.GM_BLK[1].u_bfm_ahb.memory_test: after $random&~32'b0, gen = 0x22848b45, aligned data = 0x45, added by huanglc
top.GM_BLK[0].u_bfm_ahb.memory_test: after $random&~32'b0, gen = 0xe8eec4d1, aligned data = 0xc400, added by huanglc
top.GM_BLK[1].u_bfm_ahb.memory_test: after $random&~32'b0, gen = 0x69379fd2, aligned data = 0x9f00, added by huanglc
top.GM_BLK[0].u_bfm_ahb.memory_test: after $random&~32'b0, gen = 0xb22d8464, aligned data = 0x2d0000, added by huanglc
top.GM_BLK[1].u_bfm_ahb.memory_test: after $random&~32'b0, gen = 0x809a7001, aligned data = 0x9a0000, added by huanglc
top.GM_BLK[0].u_bfm_ahb.memory_test: after $random&~32'b0, gen = 0x4235a784, aligned data = 0x42000000, added by huanglc
top.GM_BLK[1].u_bfm_ahb.memory_test: after $random&~32'b0, gen = 0x63f439c7, aligned data = 0x63000000, added by huanglc
top.GM_BLK[0].u_bfm_ahb.memory_test: after $random&~32'b0, gen = 0xa87bb850, aligned data = 0x50, added by huanglc
top.GM_BLK[1].u_bfm_ahb.memory_test: after $random&~32'b0, gen = 0xea2e2cd4, aligned data = 0xd4, added by huanglc
top.GM_BLK[0].u_bfm_ahb.memory_test: after $random&~32'b0, gen = 0xaf70f15, aligned data = 0xf00, added by huanglc
top.GM_BLK[1].u_bfm_ahb.memory_test: after $random&~32'b0, gen = 0x614ae1c2, aligned data = 0xe100, added by huanglc
top.GM_BLK[0].u_bfm_ahb.memory_test: after $random&~32'b0, gen = 0x9499ae29, aligned data = 0x990000, added by huanglc
top.GM_BLK[1].u_bfm_ahb.memory_test: after $random&~32'b0, gen = 0x7ac49ff5, aligned data = 0xc40000, added by huanglc
top.GM_BLK[0].u_bfm_ahb.memory_test: after $random&~32'b0, gen = 0xe7c328cf, aligned data = 0xe7000000, added by huanglc
top.GM_BLK[1].u_bfm_ahb.memory_test: after $random&~32'b0, gen = 0xa6ead04d, aligned data = 0xa6000000, added by huanglc
top.GM_BLK[0].u_bfm_ahb.memory_test: after $random&~32'b0, gen = 0x65e675cb, aligned data = 0xcb, added by huanglc
top.GM_BLK[1].u_bfm_ahb.memory_test: after $random&~32'b0, gen = 0xc1165e82, aligned data = 0x82, added by huanglc
top.GM_BLK[0].u_bfm_ahb.memory_test: after $random&~32'b0, gen = 0x1e5adf3c, aligned data = 0xdf00, added by huanglc
top.GM_BLK[1].u_bfm_ahb.memory_test: after $random&~32'b0, gen = 0xc84d0890, aligned data = 0x800, added by huanglc
top.GM_BLK[0].u_bfm_ahb.memory_test: after $random&~32'b0, gen = 0x550fd7aa, aligned data = 0xf0000, added by huanglc
top.GM_BLK[1].u_bfm_ahb.memory_test: after $random&~32'b0, gen = 0xbfabca7f, aligned data = 0xab0000, added by huanglc
top.GM_BLK[0].u_bfm_ahb.memory_test: after $random&~32'b0, gen = 0xfe9bdcfd, aligned data = 0xfe000000, added by huanglc
top.GM_BLK[1].u_bfm_ahb.memory_test: after $random&~32'b0, gen = 0xa7b0404f, aligned data = 0xa7000000, added by huanglc
top.GM_BLK[0].u_bfm_ahb.memory_test: after $random&~32'b0, gen = 0x79de5df3, aligned data = 0xf3, added by huanglc
top.GM_BLK[1].u_bfm_ahb.memory_test: after $random&~32'b0, gen = 0x3d38ff7a, aligned data = 0x7a, added by huanglc
top.GM_BLK[0].u_bfm_ahb.memory_test: after $random&~32'b0, gen = 0xe82c8ed0, aligned data = 0x8e00, added by huanglc
top.GM_BLK[1].u_bfm_ahb.memory_test: after $random&~32'b0, gen = 0xbcd4f679, aligned data = 0xf600, added by huanglc
top.GM_BLK[0].u_bfm_ahb.memory_test: after $random&~32'b0, gen = 0xfbc156f7, aligned data = 0xc10000, added by huanglc
top.GM_BLK[1].u_bfm_ahb.memory_test: after $random&~32'b0, gen = 0xc0b9d681, aligned data = 0xb90000, added by huanglc
top.GM_BLK[0].u_bfm_ahb.memory_test: after $random&~32'b0, gen = 0x98e82231, aligned data = 0x98000000, added by huanglc
top.GM_BLK[1].u_bfm_ahb.memory_test: after $random&~32'b0, gen = 0x5d7967ba, aligned data = 0x5d000000, added by huanglc
top.GM_BLK[0].u_bfm_ahb.memory_test: after $random&~32'b0, gen = 0x691ad1d2, aligned data = 0xd2, added by huanglc
top.GM_BLK[1].u_bfm_ahb.memory_test: after $random&~32'b0, gen = 0x554dedaa, aligned data = 0xaa, added by huanglc
top.GM_BLK[0].u_bfm_ahb.memory_test: after $random&~32'b0, gen = 0x300a8560, aligned data = 0x8500, added by huanglc
top.GM_BLK[1].u_bfm_ahb.memory_test: after $random&~32'b0, gen = 0x83958c07, aligned data = 0x8c00, added by huanglc
top.GM_BLK[0].u_bfm_ahb.memory_test: after $random&~32'b0, gen = 0x814b9202, aligned data = 0x4b0000, added by huanglc
top.GM_BLK[1].u_bfm_ahb.memory_test: after $random&~32'b0, gen = 0xf1d4a0e3, aligned data = 0xd40000, added by huanglc
top.GM_BLK[0].u_bfm_ahb.memory_test: after $random&~32'b0, gen = 0x121c5d24, aligned data = 0x12000000, added by huanglc
top.GM_BLK[1].u_bfm_ahb.memory_test: after $random&~32'b0, gen = 0x4d57239a, aligned data = 0x4d000000, added by huanglc
top.GM_BLK[0].u_bfm_ahb.memory_test: after $random&~32'b0, gen = 0x7d7f2ffa, aligned data = 0xfa, added by huanglc
top.GM_BLK[1].u_bfm_ahb.memory_test: after $random&~32'b0, gen = 0x20490b40, aligned data = 0x40, added by huanglc
top.GM_BLK[0].u_bfm_ahb.memory_test: after $random&~32'b0, gen = 0x999f1c33, aligned data = 0x1c00, added by huanglc
top.GM_BLK[1].u_bfm_ahb.memory_test: after $random&~32'b0, gen = 0x32dda965, aligned data = 0xa900, added by huanglc
top.GM_BLK[0].u_bfm_ahb.memory_test: after $random&~32'b0, gen = 0xa437ea48, aligned data = 0x370000, added by huanglc
top.GM_BLK[1].u_bfm_ahb.memory_test: after $random&~32'b0, gen = 0x40de0b81, aligned data = 0xde0000, added by huanglc
top.GM_BLK[0].u_bfm_ahb.memory_test: after $random&~32'b0, gen = 0x4078eb80, aligned data = 0x40000000, added by huanglc
top.GM_BLK[1].u_bfm_ahb.memory_test: after $random&~32'b0, gen = 0xadb6585b, aligned data = 0xad000000, added by huanglc
top.GM_BLK[0].u_bfm_ahb.memory_test: after $random&~32'b0, gen = 0xb39ad667, aligned data = 0x67, added by huanglc
top.GM_BLK[1].u_bfm_ahb.memory_test: after $random&~32'b0, gen = 0x84da3809, aligned data = 0x9, added by huanglc
top.GM_BLK[0].u_bfm_ahb.memory_test: after $random&~32'b0, gen = 0xae20b65c, aligned data = 0xb600, added by huanglc
top.GM_BLK[1].u_bfm_ahb.memory_test: after $random&~32'b0, gen = 0xce182c9c, aligned data = 0x2c00, added by huanglc
top.GM_BLK[0].u_bfm_ahb.memory_test: after $random&~32'b0, gen = 0x6e7bbddc, aligned data = 0x7b0000, added by huanglc
top.GM_BLK[1].u_bfm_ahb.memory_test: after $random&~32'b0, gen = 0x7d33f3fa, aligned data = 0x330000, added by huanglc
top.GM_BLK[0].u_bfm_ahb.memory_test: after $random&~32'b0, gen = 0xd68a2aad, aligned data = 0xd6000000, added by huanglc
top.GM_BLK[1].u_bfm_ahb.memory_test: after $random&~32'b0, gen = 0xf9dfe2f3, aligned data = 0xf9000000, added by huanglc
top.GM_BLK[0].u_bfm_ahb.memory_test: after $random&~32'b0, gen = 0x58292bb0, aligned data = 0xb0, added by huanglc
top.GM_BLK[1].u_bfm_ahb.memory_test: after $random&~32'b0, gen = 0xd8ed54b1, aligned data = 0xb1, added by huanglc
top.GM_BLK[0].u_bfm_ahb.memory_test: after $random&~32'b0, gen = 0x15d1b52b, aligned data = 0xb500, added by huanglc
top.GM_BLK[1].u_bfm_ahb.memory_test: after $random&~32'b0, gen = 0xd14bf6a2, aligned data = 0xf600, added by huanglc
top.GM_BLK[0].u_bfm_ahb.memory_test: after $random&~32'b0, gen = 0x6af86bd5, aligned data = 0xf80000, added by huanglc
top.GM_BLK[1].u_bfm_ahb.memory_test: after $random&~32'b0, gen = 0xaf303a5e, aligned data = 0x300000, added by huanglc
top.GM_BLK[0].u_bfm_ahb.memory_test: after $random&~32'b0, gen = 0xf4a87ee9, aligned data = 0xf4000000, added by huanglc
top.GM_BLK[1].u_bfm_ahb.memory_test: after $random&~32'b0, gen = 0xf578a4ea, aligned data = 0xf5000000, added by huanglc
top.GM_BLK[0].u_bfm_ahb.memory_test: after $random&~32'b0, gen = 0x559189ab, aligned data = 0xab, added by huanglc
top.GM_BLK[1].u_bfm_ahb.memory_test: after $random&~32'b0, gen = 0x712a3fe2, aligned data = 0xe2, added by huanglc
top.GM_BLK[0].u_bfm_ahb.memory_test: after $random&~32'b0, gen = 0x1807503, aligned data = 0x7500, added by huanglc
top.GM_BLK[1].u_bfm_ahb.memory_test: after $random&~32'b0, gen = 0x2c9be959, aligned data = 0xe900, added by huanglc
top.GM_BLK[0].u_bfm_ahb.memory_test: after $random&~32'b0, gen = 0x8afb5215, aligned data = 0xfb0000, added by huanglc
top.GM_BLK[1].u_bfm_ahb.memory_test: after $random&~32'b0, gen = 0x5fa8c1bf, aligned data = 0xa80000, added by huanglc
top.GM_BLK[0].u_bfm_ahb.memory_test: after $random&~32'b0, gen = 0xea7844d4, aligned data = 0xea000000, added by huanglc
top.GM_BLK[1].u_bfm_ahb.memory_test: after $random&~32'b0, gen = 0x20017f40, aligned data = 0x20000000, added by huanglc
top.GM_BLK[0].u_bfm_ahb.memory_test: after $random&~32'b0, gen = 0x31675362, aligned data = 0x62, added by huanglc
top.GM_BLK[1].u_bfm_ahb.memory_test: after $random&~32'b0, gen = 0x2074d940, aligned data = 0x40, added by huanglc
top.GM_BLK[0].u_bfm_ahb.memory_test: after $random&~32'b0, gen = 0xc4075888, aligned data = 0x5800, added by huanglc
top.GM_BLK[1].u_bfm_ahb.memory_test: after $random&~32'b0, gen = 0xafc6e25f, aligned data = 0xe200, added by huanglc
top.GM_BLK[0].u_bfm_ahb.memory_test: after $random&~32'b0, gen = 0xbbbdd677, aligned data = 0xbd0000, added by huanglc
top.GM_BLK[1].u_bfm_ahb.memory_test: after $random&~32'b0, gen = 0xcf6f669e, aligned data = 0x6f0000, added by huanglc
top.GM_BLK[0].u_bfm_ahb.memory_test: after $random&~32'b0, gen = 0x2869dd50, aligned data = 0x28000000, added by huanglc
top.GM_BLK[1].u_bfm_ahb.memory_test: after $random&~32'b0, gen = 0x98574e30, aligned data = 0x98000000, added by huanglc
top.GM_BLK[0].u_bfm_ahb.memory_test: after $random&~32'b0, gen = 0xb9e9e873, aligned data = 0x73, added by huanglc
top.GM_BLK[1].u_bfm_ahb.memory_test: after $random&~32'b0, gen = 0xa76d024e, aligned data = 0x4e, added by huanglc
top.GM_BLK[0].u_bfm_ahb.memory_test: after $random&~32'b0, gen = 0x9bccbe37, aligned data = 0xbe00, added by huanglc
top.GM_BLK[1].u_bfm_ahb.memory_test: after $random&~32'b0, gen = 0xe5a7c0cb, aligned data = 0xc000, added by huanglc
top.GM_BLK[0].u_bfm_ahb.memory_test: after $random&~32'b0, gen = 0x2be55557, aligned data = 0xe50000, added by huanglc
top.GM_BLK[1].u_bfm_ahb.memory_test: after $random&~32'b0, gen = 0x1ed20b3d, aligned data = 0xd20000, added by huanglc
top.GM_BLK[0].u_bfm_ahb.memory_test: after $random&~32'b0, gen = 0x6139a9c2, aligned data = 0x61000000, added by huanglc
top.GM_BLK[1].u_bfm_ahb.memory_test: after $random&~32'b0, gen = 0x7032f7e0, aligned data = 0x70000000, added by huanglc
top.GM_BLK[0].u_bfm_ahb.memory_test: after $random&~32'b0, gen = 0x6384a9c7, aligned data = 0xc7, added by huanglc
top.GM_BLK[1].u_bfm_ahb.memory_test: after $random&~32'b0, gen = 0x13ee9b27, aligned data = 0x27, added by huanglc
top.GM_BLK[0].u_bfm_ahb.memory_test: after $random&~32'b0, gen = 0xac430858, aligned data = 0x800, added by huanglc
top.GM_BLK[1].u_bfm_ahb.memory_test: after $random&~32'b0, gen = 0x5fb569bf, aligned data = 0x6900, added by huanglc
top.GM_BLK[0].u_bfm_ahb.memory_test: after $random&~32'b0, gen = 0x41032f82, aligned data = 0x30000, added by huanglc
top.GM_BLK[1].u_bfm_ahb.memory_test: after $random&~32'b0, gen = 0x651a8fca, aligned data = 0x1a0000, added by huanglc
top.GM_BLK[0].u_bfm_ahb.memory_test: after $random&~32'b0, gen = 0xdb7008b6, aligned data = 0xdb000000, added by huanglc
top.GM_BLK[1].u_bfm_ahb.memory_test: after $random&~32'b0, gen = 0x6fa955df, aligned data = 0x6f000000, added by huanglc
top.GM_BLK[0].u_bfm_ahb.memory_test: after $random&~32'b0, gen = 0x564ef3ac, aligned data = 0xac, added by huanglc
top.GM_BLK[1].u_bfm_ahb.memory_test: after $random&~32'b0, gen = 0x10918121, aligned data = 0x21, added by huanglc
top.GM_BLK[0].u_bfm_ahb.memory_test: after $random&~32'b0, gen = 0x2768954e, aligned data = 0x9500, added by huanglc
top.GM_BLK[1].u_bfm_ahb.memory_test: after $random&~32'b0, gen = 0x7182b7e3, aligned data = 0xb700, added by huanglc
top.GM_BLK[0].u_bfm_ahb.memory_test: after $random&~32'b0, gen = 0x3d14c37a, aligned data = 0x140000, added by huanglc
top.GM_BLK[1].u_bfm_ahb.memory_test: after $random&~32'b0, gen = 0xb80ed070, aligned data = 0xe0000, added by huanglc
top.GM_BLK[0].u_bfm_ahb.memory_test: after $random&~32'b0, gen = 0xf2e15ae5, aligned data = 0xf2000000, added by huanglc
top.GM_BLK[1].u_bfm_ahb.memory_test: after $random&~32'b0, gen = 0x48ab4991, aligned data = 0x48000000, added by huanglc
top.GM_BLK[0].u_bfm_ahb.memory_test: after $random&~32'b0, gen = 0x2b8c2957, aligned data = 0x57, added by huanglc
top.GM_BLK[1].u_bfm_ahb.memory_test: after $random&~32'b0, gen = 0x24299748, aligned data = 0x48, added by huanglc
top.GM_BLK[0].u_bfm_ahb.memory_test: after $random&~32'b0, gen = 0xa747c44e, aligned data = 0xc400, added by huanglc
top.GM_BLK[1].u_bfm_ahb.memory_test: after $random&~32'b0, gen = 0x5c3e8bb8, aligned data = 0x8b00, added by huanglc
top.GM_BLK[0].u_bfm_ahb.memory_test: after $random&~32'b0, gen = 0x94037228, aligned data = 0x30000, added by huanglc
top.GM_BLK[1].u_bfm_ahb.memory_test: after $random&~32'b0, gen = 0x2370b346, aligned data = 0x700000, added by huanglc
top.GM_BLK[0].u_bfm_ahb.memory_test: after $random&~32'b0, gen = 0xca2dfe94, aligned data = 0xca000000, added by huanglc
top.GM_BLK[1].u_bfm_ahb.memory_test: after $random&~32'b0, gen = 0x3a85b575, aligned data = 0x3a000000, added by huanglc
top.GM_BLK[0].u_bfm_ahb.memory_test: after $random&~32'b0, gen = 0x5b2ba9b6, aligned data = 0xb6, added by huanglc
top.GM_BLK[1].u_bfm_ahb.memory_test: after $random&~32'b0, gen = 0xe146bcc2, aligned data = 0xc2, added by huanglc
top.GM_BLK[0].u_bfm_ahb.memory_test: after $random&~32'b0, gen = 0xb776f66e, aligned data = 0xf600, added by huanglc
top.GM_BLK[1].u_bfm_ahb.memory_test: after $random&~32'b0, gen = 0xea33c6d4, aligned data = 0xc600, added by huanglc
top.GM_BLK[0].u_bfm_ahb.memory_test: after $random&~32'b0, gen = 0xf1249ce2, aligned data = 0x240000, added by huanglc
top.GM_BLK[1].u_bfm_ahb.memory_test: after $random&~32'b0, gen = 0x907e1220, aligned data = 0x7e0000, added by huanglc
top.GM_BLK[0].u_bfm_ahb.memory_test: after $random&~32'b0, gen = 0x2c425758, aligned data = 0x2c000000, added by huanglc
top.GM_BLK[1].u_bfm_ahb.memory_test: after $random&~32'b0, gen = 0x2561794a, aligned data = 0x25000000, added by huanglc
top.GM_BLK[0].u_bfm_ahb.memory_test: after $random&~32'b0, gen = 0x5948d5b2, aligned data = 0xb2, added by huanglc
top.GM_BLK[1].u_bfm_ahb.memory_test: after $random&~32'b0, gen = 0x5b4d10b, aligned data = 0xb, added by huanglc
top.GM_BLK[0].u_bfm_ahb.memory_test: after $random&~32'b0, gen = 0x8e988c1d, aligned data = 0x8c00, added by huanglc
top.GM_BLK[1].u_bfm_ahb.memory_test: after $random&~32'b0, gen = 0x7a4949f4, aligned data = 0x4900, added by huanglc
top.GM_BLK[0].u_bfm_ahb.memory_test: after $random&~32'b0, gen = 0xecb9a0d9, aligned data = 0xb90000, added by huanglc
top.GM_BLK[1].u_bfm_ahb.memory_test: after $random&~32'b0, gen = 0x9d70d03a, aligned data = 0x700000, added by huanglc
top.GM_BLK[0].u_bfm_ahb.memory_test: after $random&~32'b0, gen = 0x9dd6c23b, aligned data = 0x9d000000, added by huanglc
top.GM_BLK[1].u_bfm_ahb.memory_test: after $random&~32'b0, gen = 0xdc3731b, aligned data = 0xd000000, added by huanglc
top.GM_BLK[0].u_bfm_ahb.memory_test: after $random&~32'b0, gen = 0x63ab0dc7, aligned data = 0xc7, added by huanglc
top.GM_BLK[1].u_bfm_ahb.memory_test: after $random&~32'b0, gen = 0x89fbb213, aligned data = 0x13, added by huanglc
top.GM_BLK[0].u_bfm_ahb.memory_test: after $random&~32'b0, gen = 0xf7dae4ef, aligned data = 0xe400, added by huanglc
top.GM_BLK[1].u_bfm_ahb.memory_test: after $random&~32'b0, gen = 0x7b81f3f7, aligned data = 0xf300, added by huanglc
top.GM_BLK[0].u_bfm_ahb.memory_test: after $random&~32'b0, gen = 0x716fe3e2, aligned data = 0x6f0000, added by huanglc
top.GM_BLK[1].u_bfm_ahb.memory_test: after $random&~32'b0, gen = 0x64fed1c9, aligned data = 0xfe0000, added by huanglc
top.GM_BLK[0].u_bfm_ahb.memory_test: after $random&~32'b0, gen = 0x9eefa03d, aligned data = 0x9e000000, added by huanglc
top.GM_BLK[1].u_bfm_ahb.memory_test: after $random&~32'b0, gen = 0x100c8520, aligned data = 0x10000000, added by huanglc
top.GM_BLK[0].u_bfm_ahb.memory_test: after $random&~32'b0, gen = 0xff45aefe, aligned data = 0xfe, added by huanglc
top.GM_BLK[1].u_bfm_ahb.memory_test: after $random&~32'b0, gen = 0xa0df4441, aligned data = 0x41, added by huanglc
top.GM_BLK[0].u_bfm_ahb.memory_test: after $random&~32'b0, gen = 0x6c7861d8, aligned data = 0x6100, added by huanglc
top.GM_BLK[1].u_bfm_ahb.memory_test: after $random&~32'b0, gen = 0x587ca3b0, aligned data = 0xa300, added by huanglc
top.GM_BLK[0].u_bfm_ahb.memory_test: after $random&~32'b0, gen = 0xd1e0bca3, aligned data = 0xe00000, added by huanglc
top.GM_BLK[1].u_bfm_ahb.memory_test: after $random&~32'b0, gen = 0x35d9ed6b, aligned data = 0xd90000, added by huanglc
top.GM_BLK[0].u_bfm_ahb.memory_test: after $random&~32'b0, gen = 0x1c5d5338, aligned data = 0x1c000000, added by huanglc
top.GM_BLK[1].u_bfm_ahb.memory_test: after $random&~32'b0, gen = 0xc3f98c87, aligned data = 0xc3000000, added by huanglc
top.GM_BLK[0].u_bfm_ahb.memory_test: after $random&~32'b0, gen = 0x25b81b4b, aligned data = 0x4b, added by huanglc
top.GM_BLK[1].u_bfm_ahb.memory_test: after $random&~32'b0, gen = 0xa6df664d, aligned data = 0x4d, added by huanglc
top.GM_BLK[0].u_bfm_ahb.memory_test: after $random&~32'b0, gen = 0x5d375fba, aligned data = 0x5f00, added by huanglc
top.GM_BLK[1].u_bfm_ahb.memory_test: after $random&~32'b0, gen = 0xd2f43aa5, aligned data = 0x3a00, added by huanglc
top.GM_BLK[0].u_bfm_ahb.memory_test: after $random&~32'b0, gen = 0x8e11921c, aligned data = 0x110000, added by huanglc
top.GM_BLK[1].u_bfm_ahb.memory_test: after $random&~32'b0, gen = 0x3a300b74, aligned data = 0x300000, added by huanglc
top.GM_BLK[0].u_bfm_ahb.memory_test: after $random&~32'b0, gen = 0x113c3722, aligned data = 0x11000000, added by huanglc
top.GM_BLK[1].u_bfm_ahb.memory_test: after $random&~32'b0, gen = 0x10236d20, aligned data = 0x10000000, added by huanglc
top.GM_BLK[0].u_bfm_ahb.memory_test: after $random&~32'b0, gen = 0x22cdb345, aligned data = 0x45, added by huanglc
top.GM_BLK[1].u_bfm_ahb.memory_test: after $random&~32'b0, gen = 0x1b7f703, aligned data = 0x3, added by huanglc
top.GM_BLK[0].u_bfm_ahb.memory_test: after $random&~32'b0, gen = 0xabea4057, aligned data = 0x4000, added by huanglc
top.GM_BLK[1].u_bfm_ahb.memory_test: after $random&~32'b0, gen = 0xcf3f9a9e, aligned data = 0x9a00, added by huanglc
top.GM_BLK[0].u_bfm_ahb.memory_test: after $random&~32'b0, gen = 0xc8f3c491, aligned data = 0xf30000, added by huanglc
top.GM_BLK[1].u_bfm_ahb.memory_test: after $random&~32'b0, gen = 0xf2b051e, aligned data = 0x2b0000, added by huanglc
top.GM_BLK[0].u_bfm_ahb.memory_test: after $random&~32'b0, gen = 0x5874adb0, aligned data = 0x58000000, added by huanglc
top.GM_BLK[1].u_bfm_ahb.memory_test: after $random&~32'b0, gen = 0x6d7f03da, aligned data = 0x6d000000, added by huanglc
top.GM_BLK[0].u_bfm_ahb.memory_test: after $random&~32'b0, gen = 0x21fdd543, aligned data = 0x43, added by huanglc
top.GM_BLK[1].u_bfm_ahb.memory_test: after $random&~32'b0, gen = 0xefe0d4df, aligned data = 0xdf, added by huanglc
top.GM_BLK[0].u_bfm_ahb.memory_test: after $random&~32'b0, gen = 0x54ef67a9, aligned data = 0x6700, added by huanglc
top.GM_BLK[1].u_bfm_ahb.memory_test: after $random&~32'b0, gen = 0x8fd1a01f, aligned data = 0xa000, added by huanglc
top.GM_BLK[0].u_bfm_ahb.memory_test: after $random&~32'b0, gen = 0x6de4b1db, aligned data = 0xe40000, added by huanglc
top.GM_BLK[1].u_bfm_ahb.memory_test: after $random&~32'b0, gen = 0x4c70c198, aligned data = 0x700000, added by huanglc
top.GM_BLK[0].u_bfm_ahb.memory_test: after $random&~32'b0, gen = 0xae3b165c, aligned data = 0xae000000, added by huanglc
top.GM_BLK[1].u_bfm_ahb.memory_test: after $random&~32'b0, gen = 0x9add2e35, aligned data = 0x9a000000, added by huanglc
top.GM_BLK[0].u_bfm_ahb.memory_test: after $random&~32'b0, gen = 0x6bebe3d7, aligned data = 0xd7, added by huanglc
top.GM_BLK[1].u_bfm_ahb.memory_test: after $random&~32'b0, gen = 0x480de390, aligned data = 0x90, added by huanglc
top.GM_BLK[0].u_bfm_ahb.memory_test: after $random&~32'b0, gen = 0x48b12d91, aligned data = 0x2d00, added by huanglc
top.GM_BLK[1].u_bfm_ahb.memory_test: after $random&~32'b0, gen = 0x60b92dc1, aligned data = 0x2d00, added by huanglc
top.GM_BLK[0].u_bfm_ahb.memory_test: after $random&~32'b0, gen = 0x62db90c, aligned data = 0x2d0000, added by huanglc
top.GM_BLK[1].u_bfm_ahb.memory_test: after $random&~32'b0, gen = 0xfba318f7, aligned data = 0xa30000, added by huanglc
top.GM_BLK[0].u_bfm_ahb.memory_test: after $random&~32'b0, gen = 0xe18fd4c3, aligned data = 0xe1000000, added by huanglc
top.GM_BLK[1].u_bfm_ahb.memory_test: after $random&~32'b0, gen = 0xc06ad280, aligned data = 0xc0000000, added by huanglc
top.GM_BLK[0].u_bfm_ahb.memory_test: after $random&~32'b0, gen = 0x53e73da7, aligned data = 0xa7, added by huanglc
top.GM_BLK[1].u_bfm_ahb.memory_test: after $random&~32'b0, gen = 0x28af0151, aligned data = 0x51, added by huanglc
top.GM_BLK[0].u_bfm_ahb.memory_test: after $random&~32'b0, gen = 0x7525f9ea, aligned data = 0xf900, added by huanglc
top.GM_BLK[1].u_bfm_ahb.memory_test: after $random&~32'b0, gen = 0xb3212066, aligned data = 0x2000, added by huanglc
top.GM_BLK[0].u_bfm_ahb.memory_test: after $random&~32'b0, gen = 0x3e843b7d, aligned data = 0x840000, added by huanglc
top.GM_BLK[1].u_bfm_ahb.memory_test: after $random&~32'b0, gen = 0xffdff2ff, aligned data = 0xdf0000, added by huanglc
top.GM_BLK[0].u_bfm_ahb.memory_test: after $random&~32'b0, gen = 0x35bf456b, aligned data = 0x35000000, added by huanglc
top.GM_BLK[1].u_bfm_ahb.memory_test: after $random&~32'b0, gen = 0x330cf06, aligned data = 0x3000000, added by huanglc
top.GM_BLK[0].u_bfm_ahb.memory_test: after $random&~32'b0, gen = 0xd56b40aa, aligned data = 0xaa, added by huanglc
top.GM_BLK[1].u_bfm_ahb.memory_test: after $random&~32'b0, gen = 0x97700c2e, aligned data = 0x2e, added by huanglc
top.GM_BLK[0].u_bfm_ahb.memory_test: after $random&~32'b0, gen = 0xff5024fe, aligned data = 0x2400, added by huanglc
top.GM_BLK[1].u_bfm_ahb.memory_test: after $random&~32'b0, gen = 0xa8d05a51, aligned data = 0x5a00, added by huanglc
top.GM_BLK[0].u_bfm_ahb.memory_test: after $random&~32'b0, gen = 0x1c899939, aligned data = 0x890000, added by huanglc
top.GM_BLK[1].u_bfm_ahb.memory_test: after $random&~32'b0, gen = 0x6d4129da, aligned data = 0x410000, added by huanglc
top.GM_BLK[0].u_bfm_ahb.memory_test: after $random&~32'b0, gen = 0xf3e1c6e7, aligned data = 0xf3000000, added by huanglc
top.GM_BLK[1].u_bfm_ahb.memory_test: after $random&~32'b0, gen = 0x88940011, aligned data = 0x88000000, added by huanglc
top.GM_BLK[0].u_bfm_ahb.memory_test: after $random&~32'b0, gen = 0xe19f4ec3, aligned data = 0xc3, added by huanglc
top.GM_BLK[1].u_bfm_ahb.memory_test: after $random&~32'b0, gen = 0x10b8e721, aligned data = 0x21, added by huanglc
top.GM_BLK[0].u_bfm_ahb.memory_test: after $random&~32'b0, gen = 0xacbe1659, aligned data = 0x1600, added by huanglc
top.GM_BLK[1].u_bfm_ahb.memory_test: after $random&~32'b0, gen = 0xfa9bd1f, aligned data = 0xbd00, added by huanglc
top.GM_BLK[0].u_bfm_ahb.memory_test: after $random&~32'b0, gen = 0xe44b30c8, aligned data = 0x4b0000, added by huanglc
top.GM_BLK[1].u_bfm_ahb.memory_test: after $random&~32'b0, gen = 0xd05ca0a0, aligned data = 0x5c0000, added by huanglc
top.GM_BLK[0].u_bfm_ahb.memory_test: after $random&~32'b0, gen = 0x2c5bbd58, aligned data = 0x2c000000, added by huanglc
top.GM_BLK[1].u_bfm_ahb.memory_test: after $random&~32'b0, gen = 0xe9d54ad3, aligned data = 0xe9000000, added by huanglc
top.GM_BLK[0].u_bfm_ahb.memory_test: after $random&~32'b0, gen = 0x5cd6c9b9, aligned data = 0xb9, added by huanglc
top.GM_BLK[1].u_bfm_ahb.memory_test: after $random&~32'b0, gen = 0x72d710e, aligned data = 0xe, added by huanglc
top.GM_BLK[0].u_bfm_ahb.memory_test: after $random&~32'b0, gen = 0x7d0a2bfa, aligned data = 0x2b00, added by huanglc
top.GM_BLK[1].u_bfm_ahb.memory_test: after $random&~32'b0, gen = 0xcd2c249a, aligned data = 0x2400, added by huanglc
top.GM_BLK[0].u_bfm_ahb.memory_test: after $random&~32'b0, gen = 0xadc2645b, aligned data = 0xc20000, added by huanglc
top.GM_BLK[1].u_bfm_ahb.memory_test: after $random&~32'b0, gen = 0x65c435cb, aligned data = 0xc40000, added by huanglc
top.GM_BLK[0].u_bfm_ahb.memory_test: after $random&~32'b0, gen = 0xa85d8650, aligned data = 0xa8000000, added by huanglc
top.GM_BLK[1].u_bfm_ahb.memory_test: after $random&~32'b0, gen = 0x17918b2f, aligned data = 0x17000000, added by huanglc
top.GM_BLK[0].u_bfm_ahb.memory_test: after $random&~32'b0, gen = 0xcc110c98, aligned data = 0x98, added by huanglc
top.GM_BLK[1].u_bfm_ahb.memory_test: after $random&~32'b0, gen = 0x532d89a6, aligned data = 0xa6, added by huanglc
top.GM_BLK[0].u_bfm_ahb.memory_test: after $random&~32'b0, gen = 0x735ac1e6, aligned data = 0xc100, added by huanglc
top.GM_BLK[1].u_bfm_ahb.memory_test: after $random&~32'b0, gen = 0xb9f27473, aligned data = 0x7400, added by huanglc
top.GM_BLK[0].u_bfm_ahb.memory_test: after $random&~32'b0, gen = 0xaa549254, aligned data = 0x540000, added by huanglc
top.GM_BLK[1].u_bfm_ahb.memory_test: after $random&~32'b0, gen = 0x4185cb83, aligned data = 0x850000, added by huanglc
top.GM_BLK[0].u_bfm_ahb.memory_test: after $random&~32'b0, gen = 0xb638316, aligned data = 0xb000000, added by huanglc
top.GM_BLK[1].u_bfm_ahb.memory_test: after $random&~32'b0, gen = 0xad41a05a, aligned data = 0xad000000, added by huanglc
top.GM_BLK[0].u_bfm_ahb.memory_test: after $random&~32'b0, gen = 0xb2797c64, aligned data = 0x64, added by huanglc
top.GM_BLK[1].u_bfm_ahb.memory_test: after $random&~32'b0, gen = 0x92551024, aligned data = 0x24, added by huanglc
top.GM_BLK[0].u_bfm_ahb.memory_test: after $random&~32'b0, gen = 0x8fe23a1f, aligned data = 0x3a00, added by huanglc
top.GM_BLK[1].u_bfm_ahb.memory_test: after $random&~32'b0, gen = 0xed338cda, aligned data = 0x8c00, added by huanglc
top.GM_BLK[0].u_bfm_ahb.memory_test: after $random&~32'b0, gen = 0x1a531b34, aligned data = 0x530000, added by huanglc
top.GM_BLK[1].u_bfm_ahb.memory_test: after $random&~32'b0, gen = 0x66ab3dcd, aligned data = 0xab0000, added by huanglc
[     81890] top.GM_BLK[0].u_bfm_ahb.memory_test OK: from 00000000 to 000000ff
top.GM_BLK[0].u_bfm_ahb.memory_test read-all-after-write-all with 1-byte access
[     81970] top.GM_BLK[1].u_bfm_ahb.memory_test OK: from 10000000 to 100000ff
top.GM_BLK[1].u_bfm_ahb.memory_test read-all-after-write-all with 1-byte access
[    163490] top.GM_BLK[0].u_bfm_ahb.memory_test OK: from 00000000 to 000000ff
top.GM_BLK[0].u_bfm_ahb.memory_test: read-after-write test with 2-byte access
top.GM_BLK[0].u_bfm_ahb.memory_test: start addr = 0x0, finish addr = 0xff, added by huanglc
top.GM_BLK[0].u_bfm_ahb.memory_test: after $random&~32'b0, gen = 0x466c4b8c, aligned data = 0x4b8c, added by huanglc
[    163570] top.GM_BLK[1].u_bfm_ahb.memory_test OK: from 10000000 to 100000ff
top.GM_BLK[1].u_bfm_ahb.memory_test: read-after-write test with 2-byte access
top.GM_BLK[1].u_bfm_ahb.memory_test: start addr = 0x10000000, finish addr = 0x100000ff, added by huanglc
top.GM_BLK[1].u_bfm_ahb.memory_test: after $random&~32'b0, gen = 0x466c4b8c, aligned data = 0x4b8c, added by huanglc
top.GM_BLK[0].u_bfm_ahb.memory_test: after $random&~32'b0, gen = 0x2d57715a, aligned data = 0x2d570000, added by huanglc
top.GM_BLK[1].u_bfm_ahb.memory_test: after $random&~32'b0, gen = 0x2e6dfb5c, aligned data = 0x2e6d0000, added by huanglc
top.GM_BLK[0].u_bfm_ahb.memory_test: after $random&~32'b0, gen = 0xbd82ea7b, aligned data = 0xea7b, added by huanglc
top.GM_BLK[1].u_bfm_ahb.memory_test: after $random&~32'b0, gen = 0x4fc5f39f, aligned data = 0xf39f, added by huanglc
top.GM_BLK[0].u_bfm_ahb.memory_test: after $random&~32'b0, gen = 0xdebaaebd, aligned data = 0xdeba0000, added by huanglc
top.GM_BLK[1].u_bfm_ahb.memory_test: after $random&~32'b0, gen = 0x8270a604, aligned data = 0x82700000, added by huanglc
top.GM_BLK[0].u_bfm_ahb.memory_test: after $random&~32'b0, gen = 0xd1d788a3, aligned data = 0x88a3, added by huanglc
top.GM_BLK[1].u_bfm_ahb.memory_test: after $random&~32'b0, gen = 0x81de9003, aligned data = 0x9003, added by huanglc
top.GM_BLK[0].u_bfm_ahb.memory_test: after $random&~32'b0, gen = 0xdb5f10b6, aligned data = 0xdb5f0000, added by huanglc
top.GM_BLK[1].u_bfm_ahb.memory_test: after $random&~32'b0, gen = 0x8d3b801a, aligned data = 0x8d3b0000, added by huanglc
top.GM_BLK[0].u_bfm_ahb.memory_test: after $random&~32'b0, gen = 0x9c8b8839, aligned data = 0x8839, added by huanglc
top.GM_BLK[1].u_bfm_ahb.memory_test: after $random&~32'b0, gen = 0xf91d02f2, aligned data = 0x2f2, added by huanglc
top.GM_BLK[0].u_bfm_ahb.memory_test: after $random&~32'b0, gen = 0xf6cec2ed, aligned data = 0xf6ce0000, added by huanglc
top.GM_BLK[1].u_bfm_ahb.memory_test: after $random&~32'b0, gen = 0xe4afc2c9, aligned data = 0xe4af0000, added by huanglc
top.GM_BLK[0].u_bfm_ahb.memory_test: after $random&~32'b0, gen = 0xcf07f89e, aligned data = 0xf89e, added by huanglc
top.GM_BLK[1].u_bfm_ahb.memory_test: after $random&~32'b0, gen = 0x283be550, aligned data = 0xe550, added by huanglc
top.GM_BLK[0].u_bfm_ahb.memory_test: after $random&~32'b0, gen = 0x2664b34c, aligned data = 0x26640000, added by huanglc
top.GM_BLK[1].u_bfm_ahb.memory_test: after $random&~32'b0, gen = 0x8c986c19, aligned data = 0x8c980000, added by huanglc
top.GM_BLK[0].u_bfm_ahb.memory_test: after $random&~32'b0, gen = 0xbda4a27b, aligned data = 0xa27b, added by huanglc
top.GM_BLK[1].u_bfm_ahb.memory_test: after $random&~32'b0, gen = 0xdae592b5, aligned data = 0x92b5, added by huanglc
top.GM_BLK[0].u_bfm_ahb.memory_test: after $random&~32'b0, gen = 0x84388a08, aligned data = 0x84380000, added by huanglc
top.GM_BLK[1].u_bfm_ahb.memory_test: after $random&~32'b0, gen = 0x49a63793, aligned data = 0x49a60000, added by huanglc
top.GM_BLK[0].u_bfm_ahb.memory_test: after $random&~32'b0, gen = 0x9f74143e, aligned data = 0x143e, added by huanglc
top.GM_BLK[1].u_bfm_ahb.memory_test: after $random&~32'b0, gen = 0xa8102850, aligned data = 0x2850, added by huanglc
top.GM_BLK[0].u_bfm_ahb.memory_test: after $random&~32'b0, gen = 0x8ecab81d, aligned data = 0x8eca0000, added by huanglc
top.GM_BLK[1].u_bfm_ahb.memory_test: after $random&~32'b0, gen = 0x5a2b9fb4, aligned data = 0x5a2b0000, added by huanglc
top.GM_BLK[0].u_bfm_ahb.memory_test: after $random&~32'b0, gen = 0x8cf9911, aligned data = 0x9911, added by huanglc
top.GM_BLK[1].u_bfm_ahb.memory_test: after $random&~32'b0, gen = 0x30198360, aligned data = 0x8360, added by huanglc
top.GM_BLK[0].u_bfm_ahb.memory_test: after $random&~32'b0, gen = 0x517067a2, aligned data = 0x51700000, added by huanglc
top.GM_BLK[1].u_bfm_ahb.memory_test: after $random&~32'b0, gen = 0x5098e1a1, aligned data = 0x50980000, added by huanglc
top.GM_BLK[0].u_bfm_ahb.memory_test: after $random&~32'b0, gen = 0x2ca33b59, aligned data = 0x3b59, added by huanglc
top.GM_BLK[1].u_bfm_ahb.memory_test: after $random&~32'b0, gen = 0x42a33d85, aligned data = 0x3d85, added by huanglc
top.GM_BLK[0].u_bfm_ahb.memory_test: after $random&~32'b0, gen = 0xe17f80c2, aligned data = 0xe17f0000, added by huanglc
top.GM_BLK[1].u_bfm_ahb.memory_test: after $random&~32'b0, gen = 0x8bb7f817, aligned data = 0x8bb70000, added by huanglc
top.GM_BLK[0].u_bfm_ahb.memory_test: after $random&~32'b0, gen = 0x3079c960, aligned data = 0xc960, added by huanglc
top.GM_BLK[1].u_bfm_ahb.memory_test: after $random&~32'b0, gen = 0xc82eb090, aligned data = 0xb090, added by huanglc
top.GM_BLK[0].u_bfm_ahb.memory_test: after $random&~32'b0, gen = 0x5c3ab5b8, aligned data = 0x5c3a0000, added by huanglc
top.GM_BLK[1].u_bfm_ahb.memory_test: after $random&~32'b0, gen = 0x88a8a211, aligned data = 0x88a80000, added by huanglc
top.GM_BLK[0].u_bfm_ahb.memory_test: after $random&~32'b0, gen = 0x9f48cc3e, aligned data = 0xcc3e, added by huanglc
top.GM_BLK[1].u_bfm_ahb.memory_test: after $random&~32'b0, gen = 0xb78ff16, aligned data = 0xff16, added by huanglc
top.GM_BLK[0].u_bfm_ahb.memory_test: after $random&~32'b0, gen = 0x517d6da2, aligned data = 0x517d0000, added by huanglc
top.GM_BLK[1].u_bfm_ahb.memory_test: after $random&~32'b0, gen = 0xa9c5915, aligned data = 0xa9c0000, added by huanglc
top.GM_BLK[0].u_bfm_ahb.memory_test: after $random&~32'b0, gen = 0xc6fc948d, aligned data = 0x948d, added by huanglc
top.GM_BLK[1].u_bfm_ahb.memory_test: after $random&~32'b0, gen = 0xbe96fe7d, aligned data = 0xfe7d, added by huanglc
top.GM_BLK[0].u_bfm_ahb.memory_test: after $random&~32'b0, gen = 0x4727d58e, aligned data = 0x47270000, added by huanglc
top.GM_BLK[1].u_bfm_ahb.memory_test: after $random&~32'b0, gen = 0xd4525aa8, aligned data = 0xd4520000, added by huanglc
top.GM_BLK[0].u_bfm_ahb.memory_test: after $random&~32'b0, gen = 0x8cc42a19, aligned data = 0x2a19, added by huanglc
top.GM_BLK[1].u_bfm_ahb.memory_test: after $random&~32'b0, gen = 0xd7d14eaf, aligned data = 0x4eaf, added by huanglc
top.GM_BLK[0].u_bfm_ahb.memory_test: after $random&~32'b0, gen = 0xc14ada82, aligned data = 0xc14a0000, added by huanglc
top.GM_BLK[1].u_bfm_ahb.memory_test: after $random&~32'b0, gen = 0x6f53a1de, aligned data = 0x6f530000, added by huanglc
top.GM_BLK[0].u_bfm_ahb.memory_test: after $random&~32'b0, gen = 0x41d5b08, aligned data = 0x5b08, added by huanglc
top.GM_BLK[1].u_bfm_ahb.memory_test: after $random&~32'b0, gen = 0x22404b44, aligned data = 0x4b44, added by huanglc
top.GM_BLK[0].u_bfm_ahb.memory_test: after $random&~32'b0, gen = 0xfb1428f6, aligned data = 0xfb140000, added by huanglc
top.GM_BLK[1].u_bfm_ahb.memory_test: after $random&~32'b0, gen = 0x3ceee979, aligned data = 0x3cee0000, added by huanglc
top.GM_BLK[0].u_bfm_ahb.memory_test: after $random&~32'b0, gen = 0xd4a0b2a9, aligned data = 0xb2a9, added by huanglc
top.GM_BLK[1].u_bfm_ahb.memory_test: after $random&~32'b0, gen = 0x1e280f3c, aligned data = 0xf3c, added by huanglc
top.GM_BLK[0].u_bfm_ahb.memory_test: after $random&~32'b0, gen = 0x3c7a2d78, aligned data = 0x3c7a0000, added by huanglc
top.GM_BLK[1].u_bfm_ahb.memory_test: after $random&~32'b0, gen = 0xccf4ae99, aligned data = 0xccf40000, added by huanglc
top.GM_BLK[0].u_bfm_ahb.memory_test: after $random&~32'b0, gen = 0x3a8d7d75, aligned data = 0x7d75, added by huanglc
top.GM_BLK[1].u_bfm_ahb.memory_test: after $random&~32'b0, gen = 0x8d14761a, aligned data = 0x761a, added by huanglc
top.GM_BLK[0].u_bfm_ahb.memory_test: after $random&~32'b0, gen = 0x78a811f1, aligned data = 0x78a80000, added by huanglc
top.GM_BLK[1].u_bfm_ahb.memory_test: after $random&~32'b0, gen = 0x36332f6c, aligned data = 0x36330000, added by huanglc
top.GM_BLK[0].u_bfm_ahb.memory_test: after $random&~32'b0, gen = 0x2e15c55c, aligned data = 0xc55c, added by huanglc
top.GM_BLK[1].u_bfm_ahb.memory_test: after $random&~32'b0, gen = 0xc5b51e8b, aligned data = 0x1e8b, added by huanglc
top.GM_BLK[0].u_bfm_ahb.memory_test: after $random&~32'b0, gen = 0xa129c042, aligned data = 0xa1290000, added by huanglc
top.GM_BLK[1].u_bfm_ahb.memory_test: after $random&~32'b0, gen = 0xecb264d9, aligned data = 0xecb20000, added by huanglc
top.GM_BLK[0].u_bfm_ahb.memory_test: after $random&~32'b0, gen = 0xfd6a58fa, aligned data = 0x58fa, added by huanglc
top.GM_BLK[1].u_bfm_ahb.memory_test: after $random&~32'b0, gen = 0xab796056, aligned data = 0x6056, added by huanglc
top.GM_BLK[0].u_bfm_ahb.memory_test: after $random&~32'b0, gen = 0xd9d7eab3, aligned data = 0xd9d70000, added by huanglc
top.GM_BLK[1].u_bfm_ahb.memory_test: after $random&~32'b0, gen = 0x51b00da3, aligned data = 0x51b00000, added by huanglc
top.GM_BLK[0].u_bfm_ahb.memory_test: after $random&~32'b0, gen = 0x6586c3cb, aligned data = 0xc3cb, added by huanglc
top.GM_BLK[1].u_bfm_ahb.memory_test: after $random&~32'b0, gen = 0xe5ec5ccb, aligned data = 0x5ccb, added by huanglc
top.GM_BLK[0].u_bfm_ahb.memory_test: after $random&~32'b0, gen = 0x7983f9f3, aligned data = 0x79830000, added by huanglc
top.GM_BLK[1].u_bfm_ahb.memory_test: after $random&~32'b0, gen = 0xf95ba2f2, aligned data = 0xf95b0000, added by huanglc
top.GM_BLK[0].u_bfm_ahb.memory_test: after $random&~32'b0, gen = 0xf5bd50eb, aligned data = 0x50eb, added by huanglc
top.GM_BLK[1].u_bfm_ahb.memory_test: after $random&~32'b0, gen = 0xb3d0ea67, aligned data = 0xea67, added by huanglc
top.GM_BLK[0].u_bfm_ahb.memory_test: after $random&~32'b0, gen = 0x83641806, aligned data = 0x83640000, added by huanglc
top.GM_BLK[1].u_bfm_ahb.memory_test: after $random&~32'b0, gen = 0x625261c4, aligned data = 0x62520000, added by huanglc
top.GM_BLK[0].u_bfm_ahb.memory_test: after $random&~32'b0, gen = 0x4a030d94, aligned data = 0xd94, added by huanglc
top.GM_BLK[1].u_bfm_ahb.memory_test: after $random&~32'b0, gen = 0x75fda9eb, aligned data = 0xa9eb, added by huanglc
top.GM_BLK[0].u_bfm_ahb.memory_test: after $random&~32'b0, gen = 0x53f330a, aligned data = 0x53f0000, added by huanglc
top.GM_BLK[1].u_bfm_ahb.memory_test: after $random&~32'b0, gen = 0x9adb4435, aligned data = 0x9adb0000, added by huanglc
top.GM_BLK[0].u_bfm_ahb.memory_test: after $random&~32'b0, gen = 0x67fbc3cf, aligned data = 0xc3cf, added by huanglc
top.GM_BLK[1].u_bfm_ahb.memory_test: after $random&~32'b0, gen = 0xcdf8f29b, aligned data = 0xf29b, added by huanglc
top.GM_BLK[0].u_bfm_ahb.memory_test: after $random&~32'b0, gen = 0x8658f80c, aligned data = 0x86580000, added by huanglc
top.GM_BLK[1].u_bfm_ahb.memory_test: after $random&~32'b0, gen = 0xfe30d1f, aligned data = 0xfe30000, added by huanglc
top.GM_BLK[0].u_bfm_ahb.memory_test: after $random&~32'b0, gen = 0x4ac5ff95, aligned data = 0xff95, added by huanglc
top.GM_BLK[1].u_bfm_ahb.memory_test: after $random&~32'b0, gen = 0xec54e4d8, aligned data = 0xe4d8, added by huanglc
top.GM_BLK[0].u_bfm_ahb.memory_test: after $random&~32'b0, gen = 0x731dd1e6, aligned data = 0x731d0000, added by huanglc
top.GM_BLK[1].u_bfm_ahb.memory_test: after $random&~32'b0, gen = 0x81b83003, aligned data = 0x81b80000, added by huanglc
top.GM_BLK[0].u_bfm_ahb.memory_test: after $random&~32'b0, gen = 0x69870fd3, aligned data = 0xfd3, added by huanglc
top.GM_BLK[1].u_bfm_ahb.memory_test: after $random&~32'b0, gen = 0x6acb5bd5, aligned data = 0x5bd5, added by huanglc
top.GM_BLK[0].u_bfm_ahb.memory_test: after $random&~32'b0, gen = 0x318eeb63, aligned data = 0x318e0000, added by huanglc
top.GM_BLK[1].u_bfm_ahb.memory_test: after $random&~32'b0, gen = 0xda86eeb5, aligned data = 0xda860000, added by huanglc
top.GM_BLK[0].u_bfm_ahb.memory_test: after $random&~32'b0, gen = 0xc4b6fe89, aligned data = 0xfe89, added by huanglc
top.GM_BLK[1].u_bfm_ahb.memory_test: after $random&~32'b0, gen = 0xce19f09c, aligned data = 0xf09c, added by huanglc
top.GM_BLK[0].u_bfm_ahb.memory_test: after $random&~32'b0, gen = 0x4a6e3194, aligned data = 0x4a6e0000, added by huanglc
top.GM_BLK[1].u_bfm_ahb.memory_test: after $random&~32'b0, gen = 0x629543c5, aligned data = 0x62950000, added by huanglc
top.GM_BLK[0].u_bfm_ahb.memory_test: after $random&~32'b0, gen = 0xc62c988c, aligned data = 0x988c, added by huanglc
top.GM_BLK[1].u_bfm_ahb.memory_test: after $random&~32'b0, gen = 0x8b9e0017, aligned data = 0x17, added by huanglc
top.GM_BLK[0].u_bfm_ahb.memory_test: after $random&~32'b0, gen = 0xd32a50a6, aligned data = 0xd32a0000, added by huanglc
top.GM_BLK[1].u_bfm_ahb.memory_test: after $random&~32'b0, gen = 0x8e3ee61c, aligned data = 0x8e3e0000, added by huanglc
top.GM_BLK[0].u_bfm_ahb.memory_test: after $random&~32'b0, gen = 0xffe968ff, aligned data = 0x68ff, added by huanglc
top.GM_BLK[1].u_bfm_ahb.memory_test: after $random&~32'b0, gen = 0x2eb0ab5d, aligned data = 0xab5d, added by huanglc
top.GM_BLK[0].u_bfm_ahb.memory_test: after $random&~32'b0, gen = 0x48ab509, aligned data = 0x48a0000, added by huanglc
top.GM_BLK[1].u_bfm_ahb.memory_test: after $random&~32'b0, gen = 0x61b15bc3, aligned data = 0x61b10000, added by huanglc
top.GM_BLK[0].u_bfm_ahb.memory_test: after $random&~32'b0, gen = 0x95a5ba2b, aligned data = 0xba2b, added by huanglc
top.GM_BLK[1].u_bfm_ahb.memory_test: after $random&~32'b0, gen = 0xf9c2c6f3, aligned data = 0xc6f3, added by huanglc
top.GM_BLK[0].u_bfm_ahb.memory_test: after $random&~32'b0, gen = 0xaa1b8a54, aligned data = 0xaa1b0000, added by huanglc
top.GM_BLK[1].u_bfm_ahb.memory_test: after $random&~32'b0, gen = 0x2667d94c, aligned data = 0x26670000, added by huanglc
top.GM_BLK[0].u_bfm_ahb.memory_test: after $random&~32'b0, gen = 0xdd1c9cba, aligned data = 0x9cba, added by huanglc
top.GM_BLK[1].u_bfm_ahb.memory_test: after $random&~32'b0, gen = 0x1f38f33e, aligned data = 0xf33e, added by huanglc
top.GM_BLK[0].u_bfm_ahb.memory_test: after $random&~32'b0, gen = 0xd659bcac, aligned data = 0xd6590000, added by huanglc
top.GM_BLK[1].u_bfm_ahb.memory_test: after $random&~32'b0, gen = 0xee675adc, aligned data = 0xee670000, added by huanglc
top.GM_BLK[0].u_bfm_ahb.memory_test: after $random&~32'b0, gen = 0x8117d802, aligned data = 0xd802, added by huanglc
top.GM_BLK[1].u_bfm_ahb.memory_test: after $random&~32'b0, gen = 0x6e078bdc, aligned data = 0x8bdc, added by huanglc
top.GM_BLK[0].u_bfm_ahb.memory_test: after $random&~32'b0, gen = 0x79ef70f, aligned data = 0x79e0000, added by huanglc
top.GM_BLK[1].u_bfm_ahb.memory_test: after $random&~32'b0, gen = 0x213a9f42, aligned data = 0x213a0000, added by huanglc
top.GM_BLK[0].u_bfm_ahb.memory_test: after $random&~32'b0, gen = 0x333bfd66, aligned data = 0xfd66, added by huanglc
top.GM_BLK[1].u_bfm_ahb.memory_test: after $random&~32'b0, gen = 0xe0eab1c, aligned data = 0xab1c, added by huanglc
top.GM_BLK[0].u_bfm_ahb.memory_test: after $random&~32'b0, gen = 0xa9cda453, aligned data = 0xa9cd0000, added by huanglc
top.GM_BLK[1].u_bfm_ahb.memory_test: after $random&~32'b0, gen = 0xeae211d, aligned data = 0xeae0000, added by huanglc
top.GM_BLK[0].u_bfm_ahb.memory_test: after $random&~32'b0, gen = 0xb8945271, aligned data = 0x5271, added by huanglc
top.GM_BLK[1].u_bfm_ahb.memory_test: after $random&~32'b0, gen = 0xa8362e50, aligned data = 0x2e50, added by huanglc
top.GM_BLK[0].u_bfm_ahb.memory_test: after $random&~32'b0, gen = 0xa0bcf441, aligned data = 0xa0bc0000, added by huanglc
top.GM_BLK[1].u_bfm_ahb.memory_test: after $random&~32'b0, gen = 0x434c1d86, aligned data = 0x434c0000, added by huanglc
top.GM_BLK[0].u_bfm_ahb.memory_test: after $random&~32'b0, gen = 0xdcdee8b9, aligned data = 0xe8b9, added by huanglc
top.GM_BLK[1].u_bfm_ahb.memory_test: after $random&~32'b0, gen = 0x1649b32c, aligned data = 0xb32c, added by huanglc
top.GM_BLK[0].u_bfm_ahb.memory_test: after $random&~32'b0, gen = 0x4764d38e, aligned data = 0x47640000, added by huanglc
top.GM_BLK[1].u_bfm_ahb.memory_test: after $random&~32'b0, gen = 0x1a988f35, aligned data = 0x1a980000, added by huanglc
top.GM_BLK[0].u_bfm_ahb.memory_test: after $random&~32'b0, gen = 0x98988631, aligned data = 0x8631, added by huanglc
top.GM_BLK[1].u_bfm_ahb.memory_test: after $random&~32'b0, gen = 0x769491ed, aligned data = 0x91ed, added by huanglc
top.GM_BLK[0].u_bfm_ahb.memory_test: after $random&~32'b0, gen = 0xfc9e71f, aligned data = 0xfc90000, added by huanglc
top.GM_BLK[1].u_bfm_ahb.memory_test: after $random&~32'b0, gen = 0xcb0d3296, aligned data = 0xcb0d0000, added by huanglc
top.GM_BLK[0].u_bfm_ahb.memory_test: after $random&~32'b0, gen = 0x75c8bdeb, aligned data = 0xbdeb, added by huanglc
top.GM_BLK[1].u_bfm_ahb.memory_test: after $random&~32'b0, gen = 0x3f3de97e, aligned data = 0xe97e, added by huanglc
top.GM_BLK[0].u_bfm_ahb.memory_test: after $random&~32'b0, gen = 0xafa9a05f, aligned data = 0xafa90000, added by huanglc
top.GM_BLK[1].u_bfm_ahb.memory_test: after $random&~32'b0, gen = 0xe7d582cf, aligned data = 0xe7d50000, added by huanglc
top.GM_BLK[0].u_bfm_ahb.memory_test: after $random&~32'b0, gen = 0xff8dd6ff, aligned data = 0xd6ff, added by huanglc
top.GM_BLK[1].u_bfm_ahb.memory_test: after $random&~32'b0, gen = 0xad64925a, aligned data = 0x925a, added by huanglc
top.GM_BLK[0].u_bfm_ahb.memory_test: after $random&~32'b0, gen = 0x85e62c0b, aligned data = 0x85e60000, added by huanglc
top.GM_BLK[1].u_bfm_ahb.memory_test: after $random&~32'b0, gen = 0x144abf28, aligned data = 0x144a0000, added by huanglc
top.GM_BLK[0].u_bfm_ahb.memory_test: after $random&~32'b0, gen = 0xc868de90, aligned data = 0xde90, added by huanglc
top.GM_BLK[1].u_bfm_ahb.memory_test: after $random&~32'b0, gen = 0xabfb2c57, aligned data = 0x2c57, added by huanglc
top.GM_BLK[0].u_bfm_ahb.memory_test: after $random&~32'b0, gen = 0xa4b27449, aligned data = 0xa4b20000, added by huanglc
top.GM_BLK[1].u_bfm_ahb.memory_test: after $random&~32'b0, gen = 0x652fdfca, aligned data = 0x652f0000, added by huanglc
top.GM_BLK[0].u_bfm_ahb.memory_test: after $random&~32'b0, gen = 0x5349a1a6, aligned data = 0xa1a6, added by huanglc
top.GM_BLK[1].u_bfm_ahb.memory_test: after $random&~32'b0, gen = 0xe64131c, aligned data = 0x131c, added by huanglc
top.GM_BLK[0].u_bfm_ahb.memory_test: after $random&~32'b0, gen = 0xac7e2458, aligned data = 0xac7e0000, added by huanglc
top.GM_BLK[1].u_bfm_ahb.memory_test: after $random&~32'b0, gen = 0xabada257, aligned data = 0xabad0000, added by huanglc
top.GM_BLK[0].u_bfm_ahb.memory_test: after $random&~32'b0, gen = 0xeb5aaad6, aligned data = 0xaad6, added by huanglc
top.GM_BLK[1].u_bfm_ahb.memory_test: after $random&~32'b0, gen = 0xbacd6075, aligned data = 0x6075, added by huanglc
top.GM_BLK[0].u_bfm_ahb.memory_test: after $random&~32'b0, gen = 0x63a1abc7, aligned data = 0x63a10000, added by huanglc
top.GM_BLK[1].u_bfm_ahb.memory_test: after $random&~32'b0, gen = 0xa60e824c, aligned data = 0xa60e0000, added by huanglc
top.GM_BLK[0].u_bfm_ahb.memory_test: after $random&~32'b0, gen = 0x368d476d, aligned data = 0x476d, added by huanglc
top.GM_BLK[1].u_bfm_ahb.memory_test: after $random&~32'b0, gen = 0x204cf340, aligned data = 0xf340, added by huanglc
top.GM_BLK[0].u_bfm_ahb.memory_test: after $random&~32'b0, gen = 0xb6ca2e6d, aligned data = 0xb6ca0000, added by huanglc
top.GM_BLK[1].u_bfm_ahb.memory_test: after $random&~32'b0, gen = 0xd23abca4, aligned data = 0xd23a0000, added by huanglc
top.GM_BLK[0].u_bfm_ahb.memory_test: after $random&~32'b0, gen = 0xee5811d, aligned data = 0x811d, added by huanglc
top.GM_BLK[1].u_bfm_ahb.memory_test: after $random&~32'b0, gen = 0x14bc6529, aligned data = 0x6529, added by huanglc
top.GM_BLK[0].u_bfm_ahb.memory_test: after $random&~32'b0, gen = 0x8e25a21c, aligned data = 0x8e250000, added by huanglc
top.GM_BLK[1].u_bfm_ahb.memory_test: after $random&~32'b0, gen = 0x5df44dbb, aligned data = 0x5df40000, added by huanglc
top.GM_BLK[0].u_bfm_ahb.memory_test: after $random&~32'b0, gen = 0xee8626dd, aligned data = 0x26dd, added by huanglc
top.GM_BLK[1].u_bfm_ahb.memory_test: after $random&~32'b0, gen = 0xf65510ec, aligned data = 0x10ec, added by huanglc
top.GM_BLK[0].u_bfm_ahb.memory_test: after $random&~32'b0, gen = 0xa34eae46, aligned data = 0xa34e0000, added by huanglc
top.GM_BLK[1].u_bfm_ahb.memory_test: after $random&~32'b0, gen = 0x70d2ede1, aligned data = 0x70d20000, added by huanglc
top.GM_BLK[0].u_bfm_ahb.memory_test: after $random&~32'b0, gen = 0xfa7cc2f4, aligned data = 0xc2f4, added by huanglc
top.GM_BLK[1].u_bfm_ahb.memory_test: after $random&~32'b0, gen = 0xad0c165a, aligned data = 0x165a, added by huanglc
top.GM_BLK[0].u_bfm_ahb.memory_test: after $random&~32'b0, gen = 0x43f8bf87, aligned data = 0x43f80000, added by huanglc
top.GM_BLK[1].u_bfm_ahb.memory_test: after $random&~32'b0, gen = 0xcc001c98, aligned data = 0xcc000000, added by huanglc
top.GM_BLK[0].u_bfm_ahb.memory_test: after $random&~32'b0, gen = 0x784da3f0, aligned data = 0xa3f0, added by huanglc
top.GM_BLK[1].u_bfm_ahb.memory_test: after $random&~32'b0, gen = 0xe7ae4ecf, aligned data = 0x4ecf, added by huanglc
top.GM_BLK[0].u_bfm_ahb.memory_test: after $random&~32'b0, gen = 0xad5bfe5a, aligned data = 0xad5b0000, added by huanglc
top.GM_BLK[1].u_bfm_ahb.memory_test: after $random&~32'b0, gen = 0x7bb315f7, aligned data = 0x7bb30000, added by huanglc
top.GM_BLK[0].u_bfm_ahb.memory_test: after $random&~32'b0, gen = 0x3a3fd174, aligned data = 0xd174, added by huanglc
top.GM_BLK[1].u_bfm_ahb.memory_test: after $random&~32'b0, gen = 0xb0bc5661, aligned data = 0x5661, added by huanglc
top.GM_BLK[0].u_bfm_ahb.memory_test: after $random&~32'b0, gen = 0x6c615dd8, aligned data = 0x6c610000, added by huanglc
top.GM_BLK[1].u_bfm_ahb.memory_test: after $random&~32'b0, gen = 0x166cd52c, aligned data = 0x166c0000, added by huanglc
top.GM_BLK[0].u_bfm_ahb.memory_test: after $random&~32'b0, gen = 0x4e69199c, aligned data = 0x199c, added by huanglc
top.GM_BLK[1].u_bfm_ahb.memory_test: after $random&~32'b0, gen = 0x37068b6e, aligned data = 0x8b6e, added by huanglc
top.GM_BLK[0].u_bfm_ahb.memory_test: after $random&~32'b0, gen = 0xee8e82dd, aligned data = 0xee8e0000, added by huanglc
top.GM_BLK[1].u_bfm_ahb.memory_test: after $random&~32'b0, gen = 0xc5f4148b, aligned data = 0xc5f40000, added by huanglc
top.GM_BLK[0].u_bfm_ahb.memory_test: after $random&~32'b0, gen = 0xfc7a08f8, aligned data = 0x8f8, added by huanglc
top.GM_BLK[1].u_bfm_ahb.memory_test: after $random&~32'b0, gen = 0x660907cc, aligned data = 0x7cc, added by huanglc
top.GM_BLK[0].u_bfm_ahb.memory_test: after $random&~32'b0, gen = 0x2fb1df5f, aligned data = 0x2fb10000, added by huanglc
top.GM_BLK[1].u_bfm_ahb.memory_test: after $random&~32'b0, gen = 0x1611532c, aligned data = 0x16110000, added by huanglc
top.GM_BLK[0].u_bfm_ahb.memory_test: after $random&~32'b0, gen = 0xde49eabc, aligned data = 0xeabc, added by huanglc
top.GM_BLK[1].u_bfm_ahb.memory_test: after $random&~32'b0, gen = 0xaa07a654, aligned data = 0xa654, added by huanglc
top.GM_BLK[0].u_bfm_ahb.memory_test: after $random&~32'b0, gen = 0x304e9b60, aligned data = 0x304e0000, added by huanglc
top.GM_BLK[1].u_bfm_ahb.memory_test: after $random&~32'b0, gen = 0x450acb8a, aligned data = 0x450a0000, added by huanglc
top.GM_BLK[0].u_bfm_ahb.memory_test: after $random&~32'b0, gen = 0x9f22ca3e, aligned data = 0xca3e, added by huanglc
top.GM_BLK[1].u_bfm_ahb.memory_test: after $random&~32'b0, gen = 0xfbea06f7, aligned data = 0x6f7, added by huanglc
top.GM_BLK[0].u_bfm_ahb.memory_test: after $random&~32'b0, gen = 0xa0c8a241, aligned data = 0xa0c80000, added by huanglc
top.GM_BLK[1].u_bfm_ahb.memory_test: after $random&~32'b0, gen = 0x91e07823, aligned data = 0x91e00000, added by huanglc
top.GM_BLK[0].u_bfm_ahb.memory_test: after $random&~32'b0, gen = 0xadcd765b, aligned data = 0x765b, added by huanglc
top.GM_BLK[1].u_bfm_ahb.memory_test: after $random&~32'b0, gen = 0x10d78121, aligned data = 0x8121, added by huanglc
top.GM_BLK[0].u_bfm_ahb.memory_test: after $random&~32'b0, gen = 0xed50a4da, aligned data = 0xed500000, added by huanglc
top.GM_BLK[1].u_bfm_ahb.memory_test: after $random&~32'b0, gen = 0xc4481888, aligned data = 0xc4480000, added by huanglc
top.GM_BLK[0].u_bfm_ahb.memory_test: after $random&~32'b0, gen = 0xed5d78da, aligned data = 0x78da, added by huanglc
top.GM_BLK[1].u_bfm_ahb.memory_test: after $random&~32'b0, gen = 0x49933593, aligned data = 0x3593, added by huanglc
top.GM_BLK[0].u_bfm_ahb.memory_test: after $random&~32'b0, gen = 0x96900a2d, aligned data = 0x96900000, added by huanglc
top.GM_BLK[1].u_bfm_ahb.memory_test: after $random&~32'b0, gen = 0xea6924d4, aligned data = 0xea690000, added by huanglc
top.GM_BLK[0].u_bfm_ahb.memory_test: after $random&~32'b0, gen = 0x30bd1d61, aligned data = 0x1d61, added by huanglc
top.GM_BLK[1].u_bfm_ahb.memory_test: after $random&~32'b0, gen = 0xbd97fa7b, aligned data = 0xfa7b, added by huanglc
top.GM_BLK[0].u_bfm_ahb.memory_test: after $random&~32'b0, gen = 0x83150006, aligned data = 0x83150000, added by huanglc
top.GM_BLK[1].u_bfm_ahb.memory_test: after $random&~32'b0, gen = 0x858dd10, aligned data = 0x8580000, added by huanglc
top.GM_BLK[0].u_bfm_ahb.memory_test: after $random&~32'b0, gen = 0xcf97119, aligned data = 0x7119, added by huanglc
top.GM_BLK[1].u_bfm_ahb.memory_test: after $random&~32'b0, gen = 0x7df471fb, aligned data = 0x71fb, added by huanglc
top.GM_BLK[0].u_bfm_ahb.memory_test: after $random&~32'b0, gen = 0xb57e746a, aligned data = 0xb57e0000, added by huanglc
top.GM_BLK[1].u_bfm_ahb.memory_test: after $random&~32'b0, gen = 0x3556396a, aligned data = 0x35560000, added by huanglc
top.GM_BLK[0].u_bfm_ahb.memory_test: after $random&~32'b0, gen = 0x4e4e419c, aligned data = 0x419c, added by huanglc
top.GM_BLK[1].u_bfm_ahb.memory_test: after $random&~32'b0, gen = 0xebe6f2d7, aligned data = 0xf2d7, added by huanglc
top.GM_BLK[0].u_bfm_ahb.memory_test: after $random&~32'b0, gen = 0x93681026, aligned data = 0x93680000, added by huanglc
top.GM_BLK[1].u_bfm_ahb.memory_test: after $random&~32'b0, gen = 0x62c5f7c5, aligned data = 0x62c50000, added by huanglc
top.GM_BLK[0].u_bfm_ahb.memory_test: after $random&~32'b0, gen = 0x1bf21537, aligned data = 0x1537, added by huanglc
top.GM_BLK[1].u_bfm_ahb.memory_test: after $random&~32'b0, gen = 0xbf399c7e, aligned data = 0x9c7e, added by huanglc
top.GM_BLK[0].u_bfm_ahb.memory_test: after $random&~32'b0, gen = 0xa9164252, aligned data = 0xa9160000, added by huanglc
top.GM_BLK[1].u_bfm_ahb.memory_test: after $random&~32'b0, gen = 0xc8ee9491, aligned data = 0xc8ee0000, added by huanglc
top.GM_BLK[0].u_bfm_ahb.memory_test: after $random&~32'b0, gen = 0x96a23c2d, aligned data = 0x3c2d, added by huanglc
top.GM_BLK[1].u_bfm_ahb.memory_test: after $random&~32'b0, gen = 0x185e4b30, aligned data = 0x4b30, added by huanglc
top.GM_BLK[0].u_bfm_ahb.memory_test: after $random&~32'b0, gen = 0x95e2342b, aligned data = 0x95e20000, added by huanglc
top.GM_BLK[1].u_bfm_ahb.memory_test: after $random&~32'b0, gen = 0xb5744a6a, aligned data = 0xb5740000, added by huanglc
top.GM_BLK[0].u_bfm_ahb.memory_test: after $random&~32'b0, gen = 0x7deec5fb, aligned data = 0xc5fb, added by huanglc
top.GM_BLK[1].u_bfm_ahb.memory_test: after $random&~32'b0, gen = 0xba4a9874, aligned data = 0x9874, added by huanglc
top.GM_BLK[0].u_bfm_ahb.memory_test: after $random&~32'b0, gen = 0x8d65d21a, aligned data = 0x8d650000, added by huanglc
top.GM_BLK[1].u_bfm_ahb.memory_test: after $random&~32'b0, gen = 0x3795156f, aligned data = 0x37950000, added by huanglc
top.GM_BLK[0].u_bfm_ahb.memory_test: after $random&~32'b0, gen = 0x28467550, aligned data = 0x7550, added by huanglc
top.GM_BLK[1].u_bfm_ahb.memory_test: after $random&~32'b0, gen = 0x4813e190, aligned data = 0xe190, added by huanglc
top.GM_BLK[0].u_bfm_ahb.memory_test: after $random&~32'b0, gen = 0x9967ca32, aligned data = 0x99670000, added by huanglc
top.GM_BLK[1].u_bfm_ahb.memory_test: after $random&~32'b0, gen = 0xe624b2cc, aligned data = 0xe6240000, added by huanglc
top.GM_BLK[0].u_bfm_ahb.memory_test: after $random&~32'b0, gen = 0xd9c2deb3, aligned data = 0xdeb3, added by huanglc
top.GM_BLK[1].u_bfm_ahb.memory_test: after $random&~32'b0, gen = 0x224b4344, aligned data = 0x4344, added by huanglc
top.GM_BLK[0].u_bfm_ahb.memory_test: after $random&~32'b0, gen = 0x88878611, aligned data = 0x88870000, added by huanglc
top.GM_BLK[1].u_bfm_ahb.memory_test: after $random&~32'b0, gen = 0xbb489e76, aligned data = 0xbb480000, added by huanglc
top.GM_BLK[0].u_bfm_ahb.memory_test: after $random&~32'b0, gen = 0x45b4498b, aligned data = 0x498b, added by huanglc
top.GM_BLK[1].u_bfm_ahb.memory_test: after $random&~32'b0, gen = 0x40199780, aligned data = 0x9780, added by huanglc
top.GM_BLK[0].u_bfm_ahb.memory_test: after $random&~32'b0, gen = 0x35a9336b, aligned data = 0x35a90000, added by huanglc
top.GM_BLK[1].u_bfm_ahb.memory_test: after $random&~32'b0, gen = 0xc1f41283, aligned data = 0xc1f40000, added by huanglc
top.GM_BLK[0].u_bfm_ahb.memory_test: after $random&~32'b0, gen = 0xc6edc28d, aligned data = 0xc28d, added by huanglc
top.GM_BLK[1].u_bfm_ahb.memory_test: after $random&~32'b0, gen = 0x201b7b40, aligned data = 0x7b40, added by huanglc
top.GM_BLK[0].u_bfm_ahb.memory_test: after $random&~32'b0, gen = 0x9421bc28, aligned data = 0x94210000, added by huanglc
top.GM_BLK[1].u_bfm_ahb.memory_test: after $random&~32'b0, gen = 0x11240f22, aligned data = 0x11240000, added by huanglc
top.GM_BLK[0].u_bfm_ahb.memory_test: after $random&~32'b0, gen = 0x9ad11635, aligned data = 0x1635, added by huanglc
top.GM_BLK[1].u_bfm_ahb.memory_test: after $random&~32'b0, gen = 0xacfd4a59, aligned data = 0x4a59, added by huanglc
top.GM_BLK[0].u_bfm_ahb.memory_test: after $random&~32'b0, gen = 0xaca2d059, aligned data = 0xaca20000, added by huanglc
top.GM_BLK[1].u_bfm_ahb.memory_test: after $random&~32'b0, gen = 0x50db4ba1, aligned data = 0x50db0000, added by huanglc
top.GM_BLK[0].u_bfm_ahb.memory_test: after $random&~32'b0, gen = 0x2b1ad356, aligned data = 0xd356, added by huanglc
top.GM_BLK[1].u_bfm_ahb.memory_test: after $random&~32'b0, gen = 0xb1d72263, aligned data = 0x2263, added by huanglc
top.GM_BLK[0].u_bfm_ahb.memory_test: after $random&~32'b0, gen = 0x76e6d7ed, aligned data = 0x76e60000, added by huanglc
top.GM_BLK[1].u_bfm_ahb.memory_test: after $random&~32'b0, gen = 0xc4de4489, aligned data = 0xc4de0000, added by huanglc
top.GM_BLK[0].u_bfm_ahb.memory_test: after $random&~32'b0, gen = 0x326e4164, aligned data = 0x4164, added by huanglc
top.GM_BLK[1].u_bfm_ahb.memory_test: after $random&~32'b0, gen = 0x3a48df74, aligned data = 0xdf74, added by huanglc
[    204130] top.GM_BLK[0].u_bfm_ahb.memory_test OK: from 00000000 to 000000ff
top.GM_BLK[0].u_bfm_ahb.memory_test read-all-after-write-all with 2-byte access
[    204210] top.GM_BLK[1].u_bfm_ahb.memory_test OK: from 10000000 to 100000ff
top.GM_BLK[1].u_bfm_ahb.memory_test read-all-after-write-all with 2-byte access
[    244770] top.GM_BLK[0].u_bfm_ahb.memory_test OK: from 00000000 to 000000ff
top.GM_BLK[0].u_bfm_ahb.memory_test: read-after-write test with 4-byte access
top.GM_BLK[0].u_bfm_ahb.memory_test: start addr = 0x0, finish addr = 0xff, added by huanglc
top.GM_BLK[0].u_bfm_ahb.memory_test: after $random&~32'b0, gen = 0x466c4b8c, aligned data = 0x466c4b8c, added by huanglc
[    244850] top.GM_BLK[1].u_bfm_ahb.memory_test OK: from 10000000 to 100000ff
top.GM_BLK[1].u_bfm_ahb.memory_test: read-after-write test with 4-byte access
top.GM_BLK[1].u_bfm_ahb.memory_test: start addr = 0x10000000, finish addr = 0x100000ff, added by huanglc
top.GM_BLK[1].u_bfm_ahb.memory_test: after $random&~32'b0, gen = 0x466c4b8c, aligned data = 0x466c4b8c, added by huanglc
top.GM_BLK[0].u_bfm_ahb.memory_test: after $random&~32'b0, gen = 0x2d57715a, aligned data = 0x2d57715a, added by huanglc
top.GM_BLK[1].u_bfm_ahb.memory_test: after $random&~32'b0, gen = 0x2e6dfb5c, aligned data = 0x2e6dfb5c, added by huanglc
top.GM_BLK[0].u_bfm_ahb.memory_test: after $random&~32'b0, gen = 0xbd82ea7b, aligned data = 0xbd82ea7b, added by huanglc
top.GM_BLK[1].u_bfm_ahb.memory_test: after $random&~32'b0, gen = 0x4fc5f39f, aligned data = 0x4fc5f39f, added by huanglc
top.GM_BLK[0].u_bfm_ahb.memory_test: after $random&~32'b0, gen = 0xdebaaebd, aligned data = 0xdebaaebd, added by huanglc
top.GM_BLK[1].u_bfm_ahb.memory_test: after $random&~32'b0, gen = 0x8270a604, aligned data = 0x8270a604, added by huanglc
top.GM_BLK[0].u_bfm_ahb.memory_test: after $random&~32'b0, gen = 0xd1d788a3, aligned data = 0xd1d788a3, added by huanglc
top.GM_BLK[1].u_bfm_ahb.memory_test: after $random&~32'b0, gen = 0x81de9003, aligned data = 0x81de9003, added by huanglc
top.GM_BLK[0].u_bfm_ahb.memory_test: after $random&~32'b0, gen = 0xdb5f10b6, aligned data = 0xdb5f10b6, added by huanglc
top.GM_BLK[1].u_bfm_ahb.memory_test: after $random&~32'b0, gen = 0x8d3b801a, aligned data = 0x8d3b801a, added by huanglc
top.GM_BLK[0].u_bfm_ahb.memory_test: after $random&~32'b0, gen = 0x9c8b8839, aligned data = 0x9c8b8839, added by huanglc
top.GM_BLK[1].u_bfm_ahb.memory_test: after $random&~32'b0, gen = 0xf91d02f2, aligned data = 0xf91d02f2, added by huanglc
top.GM_BLK[0].u_bfm_ahb.memory_test: after $random&~32'b0, gen = 0xf6cec2ed, aligned data = 0xf6cec2ed, added by huanglc
top.GM_BLK[1].u_bfm_ahb.memory_test: after $random&~32'b0, gen = 0xe4afc2c9, aligned data = 0xe4afc2c9, added by huanglc
top.GM_BLK[0].u_bfm_ahb.memory_test: after $random&~32'b0, gen = 0xcf07f89e, aligned data = 0xcf07f89e, added by huanglc
top.GM_BLK[1].u_bfm_ahb.memory_test: after $random&~32'b0, gen = 0x283be550, aligned data = 0x283be550, added by huanglc
top.GM_BLK[0].u_bfm_ahb.memory_test: after $random&~32'b0, gen = 0x2664b34c, aligned data = 0x2664b34c, added by huanglc
top.GM_BLK[1].u_bfm_ahb.memory_test: after $random&~32'b0, gen = 0x8c986c19, aligned data = 0x8c986c19, added by huanglc
top.GM_BLK[0].u_bfm_ahb.memory_test: after $random&~32'b0, gen = 0xbda4a27b, aligned data = 0xbda4a27b, added by huanglc
top.GM_BLK[1].u_bfm_ahb.memory_test: after $random&~32'b0, gen = 0xdae592b5, aligned data = 0xdae592b5, added by huanglc
top.GM_BLK[0].u_bfm_ahb.memory_test: after $random&~32'b0, gen = 0x84388a08, aligned data = 0x84388a08, added by huanglc
top.GM_BLK[1].u_bfm_ahb.memory_test: after $random&~32'b0, gen = 0x49a63793, aligned data = 0x49a63793, added by huanglc
top.GM_BLK[0].u_bfm_ahb.memory_test: after $random&~32'b0, gen = 0x9f74143e, aligned data = 0x9f74143e, added by huanglc
top.GM_BLK[1].u_bfm_ahb.memory_test: after $random&~32'b0, gen = 0xa8102850, aligned data = 0xa8102850, added by huanglc
top.GM_BLK[0].u_bfm_ahb.memory_test: after $random&~32'b0, gen = 0x8ecab81d, aligned data = 0x8ecab81d, added by huanglc
top.GM_BLK[1].u_bfm_ahb.memory_test: after $random&~32'b0, gen = 0x5a2b9fb4, aligned data = 0x5a2b9fb4, added by huanglc
top.GM_BLK[0].u_bfm_ahb.memory_test: after $random&~32'b0, gen = 0x8cf9911, aligned data = 0x8cf9911, added by huanglc
top.GM_BLK[1].u_bfm_ahb.memory_test: after $random&~32'b0, gen = 0x30198360, aligned data = 0x30198360, added by huanglc
top.GM_BLK[0].u_bfm_ahb.memory_test: after $random&~32'b0, gen = 0x517067a2, aligned data = 0x517067a2, added by huanglc
top.GM_BLK[1].u_bfm_ahb.memory_test: after $random&~32'b0, gen = 0x5098e1a1, aligned data = 0x5098e1a1, added by huanglc
top.GM_BLK[0].u_bfm_ahb.memory_test: after $random&~32'b0, gen = 0x2ca33b59, aligned data = 0x2ca33b59, added by huanglc
top.GM_BLK[1].u_bfm_ahb.memory_test: after $random&~32'b0, gen = 0x42a33d85, aligned data = 0x42a33d85, added by huanglc
top.GM_BLK[0].u_bfm_ahb.memory_test: after $random&~32'b0, gen = 0xe17f80c2, aligned data = 0xe17f80c2, added by huanglc
top.GM_BLK[1].u_bfm_ahb.memory_test: after $random&~32'b0, gen = 0x8bb7f817, aligned data = 0x8bb7f817, added by huanglc
top.GM_BLK[0].u_bfm_ahb.memory_test: after $random&~32'b0, gen = 0x3079c960, aligned data = 0x3079c960, added by huanglc
top.GM_BLK[1].u_bfm_ahb.memory_test: after $random&~32'b0, gen = 0xc82eb090, aligned data = 0xc82eb090, added by huanglc
top.GM_BLK[0].u_bfm_ahb.memory_test: after $random&~32'b0, gen = 0x5c3ab5b8, aligned data = 0x5c3ab5b8, added by huanglc
top.GM_BLK[1].u_bfm_ahb.memory_test: after $random&~32'b0, gen = 0x88a8a211, aligned data = 0x88a8a211, added by huanglc
top.GM_BLK[0].u_bfm_ahb.memory_test: after $random&~32'b0, gen = 0x9f48cc3e, aligned data = 0x9f48cc3e, added by huanglc
top.GM_BLK[1].u_bfm_ahb.memory_test: after $random&~32'b0, gen = 0xb78ff16, aligned data = 0xb78ff16, added by huanglc
top.GM_BLK[0].u_bfm_ahb.memory_test: after $random&~32'b0, gen = 0x517d6da2, aligned data = 0x517d6da2, added by huanglc
top.GM_BLK[1].u_bfm_ahb.memory_test: after $random&~32'b0, gen = 0xa9c5915, aligned data = 0xa9c5915, added by huanglc
top.GM_BLK[0].u_bfm_ahb.memory_test: after $random&~32'b0, gen = 0xc6fc948d, aligned data = 0xc6fc948d, added by huanglc
top.GM_BLK[1].u_bfm_ahb.memory_test: after $random&~32'b0, gen = 0xbe96fe7d, aligned data = 0xbe96fe7d, added by huanglc
top.GM_BLK[0].u_bfm_ahb.memory_test: after $random&~32'b0, gen = 0x4727d58e, aligned data = 0x4727d58e, added by huanglc
top.GM_BLK[1].u_bfm_ahb.memory_test: after $random&~32'b0, gen = 0xd4525aa8, aligned data = 0xd4525aa8, added by huanglc
